***BUSMASTER Ver 2.4.0***
***PROTOCOL CAN***
***NOTE: PLEASE DO NOT EDIT THIS DOCUMENT***
***[START LOGGING SESSION]***
***START DATE AND TIME 23:9:2015 22:17:28:928***
***HEX***
***SYSTEM MODE***
***START CHANNEL BAUD RATE***
***CHANNEL 1 - Kvaser - Kvaser Leaf Light HS #0 (Channel 0), Serial Number- 0, Firmware- 0x00000037 0x00020000 - 500000 bps***
***END CHANNEL BAUD RATE***
***START DATABASE FILES (DBF/DBC)***
***END OF DATABASE FILES (DBF/DBC)***
***<Time><Tx/Rx><Channel><CAN ID><Type><DLC><DataBytes>***
22:20:14:992 Rx 0 0000021A s 8 FE 36 12 FE 69 05 07 AD 
22:20:14:992 Rx 0 0000023A s 8 00 37 00 12 00 00 00 00 
22:20:14:992 Rx 0 0000028C s 8 00 00 00 00 00 00 F0 00 
22:20:14:992 Rx 0 0000022A s 8 67 01 5E 1D 00 00 00 00 
22:20:14:992 Rx 0 0000027A s 7 30 30 0D 8C 09 15 00 
22:20:14:992 Rx 0 0000029A s 8 01 36 FE 00 00 00 00 00 
22:20:14:992 Rx 0 00000210 s 7 00 00 E3 1B 1C 86 FF 
22:20:14:992 Rx 0 0000000E s 8 20 6F 3F FF 08 FF 20 E7 
22:20:14:992 Rx 0 00000228 s 4 40 C0 30 F8 
22:20:14:992 Rx 0 000002AC s 8 0F 00 33 90 00 00 D6 CE 
22:20:14:992 Rx 0 00000258 s 8 2F C8 36 D8 46 05 00 8F 
22:20:14:992 Rx 0 000002AC s 8 0F 00 33 90 00 00 D6 CE 
22:20:14:992 Rx 0 000002BC s 8 3F 40 41 78 7E 64 00 00 
22:20:14:992 Rx 0 00000106 s 8 00 C0 00 00 FF FF 00 C5 
22:20:14:992 Rx 0 00000154 s 8 04 07 14 00 00 00 00 00 
22:20:14:992 Rx 0 00000116 s 6 00 10 F4 11 8E BA 
22:20:14:992 Rx 0 00000102 s 6 09 96 D6 FF D6 FF 
22:20:14:992 Rx 0 000002CC s 8 AB 7D 00 00 00 00 00 00 
22:20:14:992 Rx 0 0000048C s 1 00 
22:20:14:992 Rx 0 0000079C s 8 02 00 40 03 40 03 20 00 
22:20:15:2 Rx 0 000002A2 s 7 00 00 11 96 00 10 70 
22:20:15:2 Rx 0 000003A8 s 8 30 30 31 00 03 00 00 00 
22:20:15:2 Rx 0 00000202 s 8 FD 5E 45 9D C4 09 1E 2D 
22:20:15:2 Rx 0 000006F2 s 8 00 4E 33 D3 DC 34 3B CD 
22:20:15:2 Rx 0 00000212 s 5 D8 00 12 71 00 
22:20:15:2 Rx 0 0000000E s 8 20 6F 3F FF 08 FF 30 2A 
22:20:15:2 Rx 0 00000222 s 7 00 00 11 96 00 10 70 
22:20:15:2 Rx 0 00000402 s 2 10 00 
22:20:15:2 Rx 0 00000232 s 4 05 24 68 82 
22:20:15:2 Rx 0 00000228 s 4 40 C0 40 F1 
22:20:15:2 Rx 0 00000288 s 8 00 00 00 00 00 1B 00 00 
22:20:15:2 Rx 0 00000108 s 4 00 00 0F 25 
22:20:15:2 Rx 0 00000168 s 8 A9 0C 1C 7F 00 00 F0 A6 
22:20:15:2 Rx 0 000001F8 s 8 01 EF F0 B6 D3 F7 00 00 
22:20:15:2 Rx 0 000002A8 s 8 00 00 00 00 00 00 00 1B 
22:20:15:2 Rx 0 000002DC s 8 00 00 00 00 00 F1 00 97 
22:20:15:2 Rx 0 000002DC s 8 00 00 00 00 00 00 00 00 
22:20:15:2 Rx 0 00000358 s 8 04 07 50 01 F0 00 00 30 
22:20:15:2 Rx 0 00000154 s 8 04 07 14 00 00 00 00 00 
22:20:15:2 Rx 0 00000106 s 8 00 E0 00 00 FF FF 00 E5 
22:20:15:2 Rx 0 00000116 s 6 00 10 F4 11 8F BB 
22:20:15:2 Rx 0 00000102 s 6 16 96 D0 FF CB FF 
22:20:15:12 Rx 0 0000026A s 3 FA 01 00 
22:20:15:12 Rx 0 00000154 s 8 04 07 14 00 00 00 00 00 
22:20:15:12 Rx 0 00000228 s 4 40 C0 50 6C 
22:20:15:12 Rx 0 00000154 s 8 04 07 14 00 00 00 00 00 
22:20:15:12 Rx 0 00000106 s 8 00 00 00 00 FF FF 00 05 
22:20:15:12 Rx 0 00000116 s 6 00 10 F4 11 80 AC 
22:20:15:12 Rx 0 00000102 s 6 FD 95 D1 FF 95 FF 
22:20:15:12 Rx 0 00000126 s 7 02 03 00 00 00 48 09 
22:20:15:22 Rx 0 0000000E s 8 20 6F 3F FF 08 FF 50 BE 
22:20:15:22 Rx 0 00000288 s 8 00 00 00 00 00 1B 00 00 
22:20:15:22 Rx 0 000001F8 s 8 01 EF F0 C5 D2 F1 00 DE 
22:20:15:22 Rx 0 00000102 s 6 08 96 D6 FF 99 FF 
22:20:15:22 Rx 0 000002A8 s 8 00 00 00 00 00 00 00 1B 
22:20:15:22 Rx 0 00000228 s 4 40 C0 60 26 
22:20:15:22 Rx 0 00000154 s 8 04 07 14 00 00 00 00 00 
22:20:15:22 Rx 0 00000754 s 8 65 FD FF 00 00 00 00 00 
22:20:15:22 Rx 0 00000106 s 8 00 20 00 00 FF FF 00 25 
22:20:15:22 Rx 0 00000754 s 8 67 00 91 00 00 00 00 00 
22:20:15:22 Rx 0 00000754 s 8 66 00 00 00 00 00 00 F1 
22:20:15:22 Rx 0 00000754 s 8 66 00 00 00 00 00 00 00 
22:20:15:32 Rx 0 00000754 s 8 64 00 00 00 00 00 00 00 
22:20:15:32 Rx 0 00000368 s 8 00 5A 1F 00 00 08 00 FF 
22:20:15:32 Rx 0 00000754 s 8 0A 00 00 00 00 00 00 00 
22:20:15:32 Rx 0 00000268 s 8 55 00 1D 02 BD 07 36 00 
22:20:15:32 Rx 0 0000000E s 8 20 6F 3F FF 08 FF 60 F4 
22:20:15:32 Rx 0 0000022C s 8 00 00 19 8F 00 00 D6 CE 
22:20:15:32 Rx 0 00000106 s 8 00 40 00 00 FF FF 00 45 
22:20:15:32 Rx 0 0000023C s 8 3F 40 41 78 7E 64 00 00 
22:20:15:32 Rx 0 00000228 s 4 40 C0 70 EB 
22:20:15:32 Rx 0 0000024C s 8 AB 7D 00 00 00 00 00 00 
22:20:15:32 Rx 0 0000040C s 1 00 
22:20:15:32 Rx 0 0000071C s 8 15 00 85 9B 00 00 00 00 
22:20:15:32 Rx 0 00000154 s 8 04 07 14 00 00 00 00 00 
22:20:15:32 Rx 0 00000102 s 6 FD 95 DC FF 95 FF 
22:20:15:32 Rx 0 00000116 s 6 00 10 F4 11 82 AE 
22:20:15:32 Rx 0 00000102 s 6 FD 95 DC FF 95 FF 
22:20:15:42 Rx 0 0000000E s 8 20 6F 3F FF 08 FF 70 39 
22:20:15:42 Rx 0 0000020E s 8 88 10 00 13 BB 00 06 00 
22:20:15:42 Rx 0 0000032E s 4 00 00 00 00 
22:20:15:42 Rx 0 0000040E s 1 00 
22:20:15:42 Rx 0 00000288 s 8 00 00 00 00 00 1B 00 00 
22:20:15:42 Rx 0 00000108 s 4 00 00 01 17 
22:20:15:42 Rx 0 000002A8 s 8 00 00 00 00 00 00 00 1B 
22:20:15:42 Rx 0 000001F8 s 8 01 EF F0 D6 D3 17 00 00 
22:20:15:42 Rx 0 000002A8 s 8 00 00 00 00 00 00 00 1B 
22:20:15:42 Rx 0 00000228 s 4 40 C0 80 94 
22:20:15:42 Rx 0 00000154 s 8 04 07 14 00 00 00 00 00 
22:20:15:42 Rx 0 00000106 s 8 00 60 00 00 FF FF 00 65 
22:20:15:42 Rx 0 00000116 s 6 00 10 F4 11 83 AF 
22:20:15:42 Rx 0 000002C8 s 8 6E 80 03 7B 00 00 60 96 
22:20:15:42 Rx 0 00000102 s 6 0A 96 E1 FF 9B FF 
22:20:15:52 Rx 0 0000000E s 8 20 6F 3F FF 08 FF 80 46 
22:20:15:52 Rx 0 000003D8 s 3 86 06 00 
22:20:15:52 Rx 0 00000408 s 1 80 
22:20:15:52 Rx 0 00000228 s 4 40 C0 90 59 
22:20:15:52 Rx 0 00000154 s 8 04 07 14 00 00 00 00 00 
22:20:15:52 Rx 0 00000106 s 8 00 80 00 00 FF FF 00 85 
22:20:15:52 Rx 0 00000116 s 6 00 10 F4 11 84 B0 
22:20:15:52 Rx 0 00000102 s 6 0A 96 E0 FF D3 FF 
22:20:15:62 Rx 0 00000108 s 4 00 00 02 18 
22:20:15:62 Rx 0 00000288 s 8 00 00 00 00 00 1B 00 00 
22:20:15:62 Rx 0 00000106 s 8 00 A0 00 00 FF F1 00 18 
22:20:15:62 Rx 0 00000168 s 8 A9 0C 1C 7F 00 00 20 D6 
22:20:15:62 Rx 0 000001F8 s 8 01 EF F0 E6 D3 27 00 00 
22:20:15:62 Rx 0 000002A8 s 8 00 00 00 00 00 00 00 1B 
22:20:15:62 Rx 0 00000228 s 4 40 C0 A0 13 
22:20:15:62 Rx 0 00000154 s 8 04 07 14 00 00 00 00 00 
22:20:15:62 Rx 0 00000116 s 6 00 10 F4 11 85 B1 
22:20:15:62 Rx 0 00000256 s 8 81 02 00 30 00 60 00 6B 
22:20:15:62 Rx 0 00000116 s 6 00 10 F4 11 85 B1 
22:20:15:62 Rx 0 00000102 s 6 21 96 D9 FF D3 FF 
22:20:15:62 Rx 0 00000266 s 8 85 04 00 00 00 70 0A 4B 
22:20:15:72 Rx 0 0000000E s 8 20 6F 3F FF 08 FF A0 C1 
22:20:15:72 Rx 0 0000021C s 8 00 08 00 00 86 01 00 14 
22:20:15:72 Rx 0 0000025C s 8 01 02 26 9A 05 00 4D 04 
22:20:15:72 Rx 0 00000228 s 4 40 C0 B0 DE 
22:20:15:72 Rx 0 00000116 s 6 00 10 F4 11 86 B2 
22:20:15:72 Rx 0 00000154 s 8 04 07 14 00 00 00 00 00 
22:20:15:72 Rx 0 00000116 s 6 00 10 F4 11 86 B2 
22:20:15:72 Rx 0 00000238 s 8 00 FF 00 00 00 00 A1 BF 
22:20:15:72 Rx 0 00000102 s 6 16 96 D1 FF D1 FF 
22:20:15:82 Rx 0 00000218 s 8 7D 04 FF 07 FF 00 00 BD 
22:20:15:82 Rx 0 0000000E s 8 20 6F 3F FF 08 FF B0 0C 
22:20:15:82 Rx 0 0000028A s 8 0A 00 FF 1F 00 01 00 00 
22:20:15:82 Rx 0 000003CA s 8 00 00 00 00 00 00 00 00 
22:20:15:82 Rx 0 00000168 s 8 A8 0C 1C 7F 00 00 30 E5 
22:20:15:82 Rx 0 00000108 s 4 00 00 03 19 
22:20:15:82 Rx 0 00000125 s 4 FF 03 33 0B 
22:20:15:82 Rx 0 000001F8 s 8 01 EF F0 F6 D3 37 00 00 
22:20:15:82 Rx 0 000002A8 s 8 00 00 00 00 00 00 00 1B 
22:20:15:82 Rx 0 00000228 s 4 40 C0 C0 87 
22:20:15:82 Rx 0 00000154 s 8 04 07 14 00 00 00 00 00 
22:20:15:82 Rx 0 00000106 s 8 00 E0 00 00 FF FF 00 E5 
22:20:15:82 Rx 0 00000116 s 6 00 10 F4 11 87 B3 
22:20:15:82 Rx 0 00000102 s 6 16 96 D2 FF A2 F1 
22:20:15:82 Rx 0 00000102 s 6 16 96 D2 FF A2 FF 
22:20:15:92 Rx 0 0000025A s 8 00 00 00 00 00 00 00 00 
22:20:15:92 Rx 0 0000023A s 8 00 38 00 12 00 00 00 00 
22:20:15:92 Rx 0 0000021A s 8 FE 36 12 FE 69 05 07 AD 
22:20:15:92 Rx 0 0000022A s 8 67 01 5E 1D 00 00 00 00 
22:20:15:92 Rx 0 0000027A s 7 30 30 0D 8C 09 15 00 
22:20:15:92 Rx 0 0000029A s 8 01 36 FE 00 00 00 00 00 
22:20:15:92 Rx 0 00000228 s 4 40 C0 D0 4A 
22:20:15:92 Rx 0 0000000E s 8 20 6F 3F FF 08 FF C0 55 
22:20:15:92 Rx 0 00000116 s 6 00 10 F4 11 88 F1 
22:20:15:92 Rx 0 00000258 s 8 2F C8 36 D8 46 05 00 8F 
22:20:15:92 Rx 0 0000028C s 8 00 00 00 00 00 00 F0 00 
22:20:15:92 Rx 0 000002AC s 8 0D 00 2E 90 00 00 D6 CE 
22:20:15:92 Rx 0 00000106 s 8 00 00 00 00 FF FF 00 05 
22:20:15:92 Rx 0 00000154 s 8 04 07 14 00 00 00 00 00 
22:20:15:92 Rx 0 000002BC s 8 3F 40 41 78 7E 64 00 F1 
22:20:15:92 Rx 0 000002BC s 8 3F 40 41 78 7E 64 00 00 
22:20:15:92 Rx 0 000002CC s 8 AB 7D 00 00 00 00 00 00 
22:20:15:92 Rx 0 0000048C s 1 00 
22:20:15:102 Rx 0 0000059C s 8 01 00 00 00 FE 00 00 09 
22:20:15:102 Rx 0 0000020A s 8 00 01 01 82 11 3F 11 11 
22:20:15:102 Rx 0 0000079C s 8 03 00 00 00 00 00 00 00 
22:20:15:102 Rx 0 00000202 s 8 FD 5E 45 9D C4 09 1E 2D 
22:20:15:102 Rx 0 0000000E s 8 20 6F 3F FF 08 FF D0 98 
22:20:15:102 Rx 0 00000212 s 5 D8 00 12 71 00 
22:20:15:102 Rx 0 0000000E s 8 20 6F 3F FF 08 FF D0 98 
22:20:15:102 Rx 0 00000222 s 7 00 00 14 96 00 10 70 
22:20:15:102 Rx 0 0000051A s 8 43 09 00 00 00 00 00 00 
22:20:15:102 Rx 0 000002A2 s 7 00 00 14 96 00 10 70 
22:20:15:102 Rx 0 000003A8 s 8 30 30 31 00 03 00 00 00 
22:20:15:102 Rx 0 00000232 s 4 00 24 68 82 
22:20:15:102 Rx 0 00000308 s 8 E9 EB 10 11 B9 30 00 00 
22:20:15:102 Rx 0 00000328 s 8 8A 8A 8C 02 00 F1 00 0A 
22:20:15:102 Rx 0 00000328 s 8 8A 8A 8C 02 00 00 00 00 
22:20:15:102 Rx 0 00000168 s 8 A9 0C 1C 7F 00 00 40 F6 
22:20:15:102 Rx 0 000001F8 s 8 01 EF F0 06 D3 47 00 00 
22:20:15:102 Rx 0 000002A8 s 8 00 00 00 00 00 00 00 1B 
22:20:15:102 Rx 0 000003F8 s 8 A4 02 9A 02 92 02 96 02 
22:20:15:102 Rx 0 00000402 s 2 10 00 
22:20:15:102 Rx 0 00000318 s 8 7B 78 7F 14 62 00 00 00 
22:20:15:102 Rx 0 0000029C s 8 00 08 00 00 87 01 00 14 
22:20:15:102 Rx 0 00000228 s 4 40 C0 E0 00 
22:20:15:102 Rx 0 0000029C s 8 00 08 00 00 87 01 00 14 
22:20:15:102 Rx 0 000002DC s 8 00 00 00 00 00 00 00 00 
22:20:15:102 Rx 0 00000358 s 8 04 07 50 01 F0 00 00 30 
22:20:15:102 Rx 0 00000154 s 8 04 07 14 00 00 00 00 00 
22:20:15:102 Rx 0 00000106 s 8 00 20 00 00 FF FF 00 25 
22:20:15:102 Rx 0 000003FC s 8 00 00 00 00 00 00 00 00 
22:20:15:102 Rx 0 00000116 s 6 00 10 F4 11 89 B5 
22:20:15:102 Rx 0 0000026A s 3 FA 01 00 
22:20:15:112 Rx 0 0000000E s 8 20 6F 3F FF 08 FF E0 D2 
22:20:15:112 Rx 0 00000228 s 4 40 C0 F0 CD 
22:20:15:112 Rx 0 000003CC s 8 00 00 00 00 00 00 00 00 
22:20:15:112 Rx 0 00000154 s 8 04 07 14 00 00 00 00 00 
22:20:15:112 Rx 0 00000106 s 8 00 40 00 00 FF FF 00 45 
22:20:15:112 Rx 0 00000116 s 6 00 10 F4 11 8A B6 
22:20:15:112 Rx 0 00000102 s 6 16 96 E0 FF 99 FF 
22:20:15:112 Rx 0 00000126 s 7 02 03 00 00 00 48 09 
22:20:15:122 Rx 0 00000108 s 4 00 00 05 1B 
22:20:15:122 Rx 0 00000288 s 8 00 00 00 00 00 1B 00 00 
22:20:15:122 Rx 0 00000154 s 8 04 07 14 00 00 F1 00 78 
22:20:15:122 Rx 0 000001F8 s 8 01 EF F0 16 D3 57 00 00 
22:20:15:122 Rx 0 000002A8 s 8 00 00 00 00 00 00 00 1B 
22:20:15:122 Rx 0 00000368 s 8 00 5A 1F 00 00 08 00 FF 
22:20:15:122 Rx 0 00000228 s 4 40 C0 00 B2 
22:20:15:122 Rx 0 000003DC s 8 00 00 00 00 00 00 00 00 
22:20:15:122 Rx 0 00000754 s 8 65 FD FF 00 00 00 00 00 
22:20:15:122 Rx 0 00000106 s 8 00 60 00 00 FF FF 00 65 
22:20:15:122 Rx 0 00000754 s 8 65 FD FF 00 00 00 00 00 
22:20:15:122 Rx 0 00000116 s 6 00 10 F4 11 8B B7 
22:20:15:122 Rx 0 00000102 s 6 15 96 E1 FF BB FF 
22:20:15:122 Rx 0 00000754 s 8 67 00 91 00 00 00 00 00 
22:20:15:122 Rx 0 00000754 s 8 66 00 00 00 00 00 00 00 
22:20:15:132 Rx 0 00000754 s 8 64 00 00 00 00 00 00 00 
22:20:15:132 Rx 0 00000754 s 8 0A 00 00 00 00 00 00 00 
22:20:15:132 Rx 0 0000020C s 8 00 00 00 00 00 00 F0 00 
22:20:15:132 Rx 0 0000000E s 8 20 6F 3F FF 08 FF 00 60 
22:20:15:132 Rx 0 0000040C s 1 00 
22:20:15:132 Rx 0 0000022C s 8 00 00 2F 8F 00 00 D6 CE 
22:20:15:132 Rx 0 0000023C s 8 3F 40 41 78 7E 64 00 00 
22:20:15:132 Rx 0 00000228 s 4 40 C0 10 7F 
22:20:15:132 Rx 0 00000248 s 7 30 30 1D 8C 01 15 00 
22:20:15:132 Rx 0 0000024C s 8 AB 7D 00 00 00 00 00 00 
22:20:15:132 Rx 0 000003AC s 8 00 00 00 00 00 00 00 00 
22:20:15:132 Rx 0 00000106 s 8 00 80 F1 00 14 13 E8 09 
22:20:15:132 Rx 0 00000106 s 8 00 80 00 00 FF FF 00 85 
22:20:15:132 Rx 0 0000071C s 8 16 00 00 00 00 00 00 00 
22:20:15:132 Rx 0 00000116 s 6 00 10 F4 11 8C B8 
22:20:15:132 Rx 0 00000102 s 6 21 96 DD FF D4 FF 
22:20:15:142 Rx 0 0000000E s 8 20 6F 3F FF 08 FF 10 AD 
22:20:15:142 Rx 0 0000020E s 8 88 10 00 13 BB 00 06 00 
22:20:15:142 Rx 0 0000033E s 8 00 00 00 00 00 00 00 00 
22:20:15:142 Rx 0 00000108 s 4 00 00 F1 00 
22:20:15:142 Rx 0 00000106 s 8 00 A0 00 00 FF F1 00 BA 
22:20:15:142 Rx 0 000001F8 s 8 01 EF F0 26 D3 67 00 00 
22:20:15:142 Rx 0 000002A8 s 8 00 00 00 00 00 00 00 1B 
22:20:15:142 Rx 0 00000228 s 4 40 C0 20 35 
22:20:15:142 Rx 0 000003BC s 8 00 55 55 55 01 00 00 00 
22:20:15:142 Rx 0 00000154 s 8 04 07 14 00 00 00 00 00 
22:20:15:142 Rx 0 000002C8 s 8 6E 80 03 7B 00 00 70 A6 
22:20:15:142 Rx 0 00000116 s 6 00 10 F4 11 8D B9 
22:20:15:142 Rx 0 000002C8 s 8 6E 80 03 7B 00 00 70 A6 
22:20:15:142 Rx 0 00000102 s 6 21 96 D6 FF D0 FF 
22:20:15:152 Rx 0 0000000E s 8 20 6F 3F FF 08 FF 20 E7 
22:20:15:152 Rx 0 00000228 s 4 40 C0 30 F8 
22:20:15:152 Rx 0 00000154 s 8 04 07 14 00 00 00 00 00 
22:20:15:152 Rx 0 00000106 s 8 00 C0 00 00 FF FF 00 C5 
22:20:15:152 Rx 0 00000116 s 6 00 10 F4 11 8E BA 
22:20:15:152 Rx 0 00000408 s 1 90 
22:20:15:152 Rx 0 000003D8 s 3 86 06 00 
22:20:15:152 Rx 0 00000408 s 1 90 
22:20:15:162 Rx 0 0000000E s 8 20 6F 3F FF 08 FF 30 2A 
22:20:15:162 Rx 0 00000278 s 8 12 00 40 02 04 00 70 CE 
22:20:15:162 Rx 0 00000288 s 8 00 00 00 00 00 1B 00 00 
22:20:15:162 Rx 0 00000108 s 4 00 00 07 1D 
22:20:15:162 Rx 0 00000168 s 8 A9 0C 1C 7F 00 00 70 26 
22:20:15:162 Rx 0 000001F8 s 8 01 EF F0 35 D2 77 00 00 
22:20:15:162 Rx 0 00000154 s 8 04 07 14 00 00 00 00 00 
22:20:15:162 Rx 0 00000228 s 4 40 C0 40 A1 
22:20:15:162 Rx 0 00000154 s 8 04 07 14 00 00 00 00 00 
22:20:15:162 Rx 0 00000106 s 8 00 E0 00 00 FF FF 00 E5 
22:20:15:162 Rx 0 00000256 s 8 81 02 00 30 00 70 00 7B 
22:20:15:162 Rx 0 00000116 s 6 00 10 F4 11 8F BB 
22:20:15:162 Rx 0 00000102 s 6 08 96 D2 FF 9C FF 
22:20:15:162 Rx 0 00000266 s 8 85 04 00 00 00 70 0A 4B 
22:20:15:172 Rx 0 0000000E s 8 20 6F 3F FF 08 FF 40 73 
22:20:15:172 Rx 0 0000025C s 8 01 02 26 9A 69 00 53 04 
22:20:15:172 Rx 0 00000228 s 4 40 C0 50 6C 
22:20:15:172 Rx 0 0000025C s 8 01 02 26 9A 69 00 53 04 
22:20:15:172 Rx 0 00000238 s 8 00 FF 00 00 00 00 B1 72 
22:20:15:172 Rx 0 00000154 s 8 04 07 14 00 00 00 00 00 
22:20:15:172 Rx 0 00000106 s 8 00 00 00 00 FF FF 00 05 
22:20:15:172 Rx 0 00000116 s 6 00 10 F4 11 80 AC 
22:20:15:172 Rx 0 00000102 s 6 23 96 D8 FF 9C FF 
22:20:15:182 Rx 0 00000338 s 8 D6 00 F7 00 27 01 54 54 
22:20:15:182 Rx 0 0000030A s 8 00 01 7C B3 02 41 00 17 
22:20:15:182 Rx 0 0000028A s 8 0A 00 FF 1F 00 01 00 00 
22:20:15:182 Rx 0 000001F8 s 8 01 EF F0 46 D3 87 00 00 
22:20:15:182 Rx 0 000003EA s 8 01 00 00 00 FE 00 00 08 
22:20:15:182 Rx 0 0000065A s 8 0D 00 00 00 D3 64 00 00 
22:20:15:182 Rx 0 00000288 s 8 00 00 00 00 00 1B 00 00 
22:20:15:182 Rx 0 00000108 s 4 00 00 08 1E 
22:20:15:182 Rx 0 0000048A s 8 00 00 00 00 00 00 00 00 
22:20:15:182 Rx 0 00000168 s 8 A9 0C 1C 7F 00 00 80 36 
22:20:15:182 Rx 0 00000228 s 4 40 C0 60 26 
22:20:15:182 Rx 0 000002A8 s 8 00 00 00 00 00 00 00 1B 
22:20:15:182 Rx 0 00000228 s 4 40 C0 60 26 
22:20:15:182 Rx 0 00000125 s 4 FF 02 33 0C 
22:20:15:182 Rx 0 00000138 s 5 00 1C 52 00 00 
22:20:15:182 Rx 0 00000154 s 8 04 17 14 00 00 00 00 00 
22:20:15:182 Rx 0 00000106 s 8 00 20 00 00 FF FF 00 25 
22:20:15:182 Rx 0 00000116 s 6 00 90 F4 11 91 3D 
22:20:15:182 Rx 0 00000102 s 6 0A 96 DD FF 9E FF 
22:20:15:192 Rx 0 0000021A s 8 FE 36 12 FE 69 05 07 AD 
22:20:15:192 Rx 0 0000023A s 8 00 38 00 12 00 00 00 00 
22:20:15:192 Rx 0 00000228 s 4 40 C0 70 EB 
22:20:15:192 Rx 0 0000022A s 8 67 01 5E 1D 00 00 00 00 
22:20:15:192 Rx 0 0000027A s 7 30 30 0D 8C 09 15 00 
22:20:15:192 Rx 0 0000024A s 8 FE FE FE FE FE FE FE 14 
22:20:15:192 Rx 0 0000029A s 8 01 36 FE 00 00 00 00 00 
22:20:15:192 Rx 0 00000210 s 7 00 00 E3 1B 1D 86 FF 
22:20:15:192 Rx 0 0000000E s 8 20 6E 3F FF 08 FF 60 B2 
22:20:15:192 Rx 0 000002AC s 8 11 00 23 90 00 F1 00 4D 
22:20:15:192 Rx 0 0000048C s 1 00 
22:20:15:192 Rx 0 000002BC s 8 3F 40 41 78 7E 64 00 00 
22:20:15:192 Rx 0 00000154 s 8 04 17 14 00 00 00 00 00 
22:20:15:192 Rx 0 00000106 s 8 00 40 00 00 FF FF 00 45 
22:20:15:192 Rx 0 000002CC s 8 AB 7D 00 00 00 00 00 00 
22:20:15:192 Rx 0 00000116 s 6 00 90 F4 11 92 3E 
22:20:15:192 Rx 0 00000102 s 6 0A 96 E1 FF 9E FF 
22:20:15:192 Rx 0 0000048C s 1 00 
22:20:15:192 Rx 0 000005BC s 8 0A 01 12 00 09 00 06 00 
22:20:15:192 Rx 0 0000079C s 8 04 00 00 00 00 00 00 00 
22:20:15:202 Rx 0 0000020A s 8 00 01 01 82 21 3F 11 11 
22:20:15:202 Rx 0 000003A8 s 8 30 30 31 00 03 00 00 00 
22:20:15:202 Rx 0 00000258 s 8 2F C8 36 D8 46 05 00 8F 
22:20:15:202 Rx 0 00000202 s 8 FD 5E 45 9D C4 09 1E 2D 
22:20:15:202 Rx 0 000006F2 s 8 02 45 F3 D0 8C 34 2F CD 
22:20:15:202 Rx 0 00000212 s 5 D8 00 12 71 00 
22:20:15:202 Rx 0 000002A2 s 7 00 00 11 96 00 10 70 
22:20:15:202 Rx 0 00000222 s 7 00 00 11 96 00 10 70 
22:20:15:202 Rx 0 000001F8 s 8 01 EF F0 56 D3 97 00 00 
22:20:15:202 Rx 0 00000402 s 2 10 00 
22:20:15:202 Rx 0 000003A2 s 8 FF 0F FF 0F 00 00 00 32 
22:20:15:202 Rx 0 00000288 s 8 00 00 00 00 00 1B 00 00 
22:20:15:202 Rx 0 00000108 s 4 00 00 09 1F 
22:20:15:202 Rx 0 00000168 s 8 A8 0C 1C 7F 00 00 90 45 
22:20:15:202 Rx 0 00000358 s 8 04 07 50 01 F0 00 00 30 
22:20:15:202 Rx 0 000002A8 s 8 00 00 00 00 00 00 00 1B 
22:20:15:202 Rx 0 00000358 s 8 04 07 50 01 F0 00 00 30 
22:20:15:202 Rx 0 00000228 s 4 40 C0 80 94 
22:20:15:202 Rx 0 0000029C s 8 00 08 00 00 87 01 00 14 
22:20:15:202 Rx 0 000002DC s 8 00 00 00 00 00 00 00 00 
22:20:15:202 Rx 0 00000154 s 8 04 17 14 00 00 00 00 00 
22:20:15:202 Rx 0 00000106 s 8 00 60 00 00 FF FF 00 65 
22:20:15:202 Rx 0 00000116 s 6 00 90 F4 11 93 3F 
22:20:15:202 Rx 0 00000102 s 6 15 96 DF FF D1 FF 
22:20:15:202 Rx 0 0000026A s 3 FA 01 00 
22:20:15:212 Rx 0 0000000E s 8 20 6E 3F FF 08 FF 80 00 
22:20:15:212 Rx 0 00000228 s 4 40 C0 90 59 
22:20:15:212 Rx 0 00000154 s 8 04 17 14 00 00 00 00 00 
22:20:15:212 Rx 0 00000106 s 8 00 80 00 00 FF FF 00 85 
22:20:15:212 Rx 0 00000116 s 6 00 90 F4 11 94 40 
22:20:15:212 Rx 0 00000126 s 7 02 03 00 00 00 48 09 
22:20:15:212 Rx 0 00000102 s 6 21 96 D8 FF D3 FF 
22:20:15:222 Rx 0 00000108 s 4 00 00 0A 20 
22:20:15:222 Rx 0 00000288 s 8 00 00 00 00 00 1B 00 00 
22:20:15:222 Rx 0 00000154 s 8 04 17 14 00 00 F1 00 18 
22:20:15:222 Rx 0 000001F8 s 8 01 EF F0 66 D3 A7 00 00 
22:20:15:222 Rx 0 000002A8 s 8 00 00 00 00 00 00 00 1B 
22:20:15:222 Rx 0 00000368 s 8 00 5A 1F 00 00 08 00 FF 
22:20:15:222 Rx 0 00000228 s 4 40 C0 A0 13 
22:20:15:222 Rx 0 00000106 s 8 00 A0 00 00 FF FF 00 A5 
22:20:15:222 Rx 0 00000754 s 8 65 FD FF 00 00 00 00 00 
22:20:15:222 Rx 0 00000116 s 6 00 90 F4 11 95 41 
22:20:15:222 Rx 0 00000754 s 8 65 FD FF 00 00 00 00 00 
22:20:15:222 Rx 0 00000102 s 6 20 96 D0 FF D0 FF 
22:20:15:222 Rx 0 00000754 s 8 67 00 95 00 00 00 00 00 
22:20:15:222 Rx 0 00000754 s 8 66 00 00 00 00 00 00 00 
22:20:15:232 Rx 0 00000754 s 8 64 00 00 00 00 00 00 00 
22:20:15:232 Rx 0 00000754 s 8 0A 00 00 00 00 00 00 00 
22:20:15:232 Rx 0 00000268 s 8 55 00 1D 02 BD 07 36 00 
22:20:15:232 Rx 0 00000388 s 8 38 38 4C 47 5A 4E 00 00 
22:20:15:232 Rx 0 0000062A s 8 A0 00 00 00 00 00 00 63 
22:20:15:232 Rx 0 0000040C s 1 00 
22:20:15:232 Rx 0 0000020C s 8 00 00 00 00 00 00 F0 00 
22:20:15:232 Rx 0 0000022C s 8 00 00 1B 8F 00 00 D6 CE 
22:20:15:232 Rx 0 0000023C s 8 3F 40 41 78 7E 64 00 00 
22:20:15:232 Rx 0 00000228 s 4 40 C0 B0 DE 
22:20:15:232 Rx 0 00000248 s 7 30 30 1D 8C 01 15 00 
22:20:15:232 Rx 0 0000024C s 8 AB 7D 00 00 00 00 00 00 
22:20:15:232 Rx 0 00000154 s 8 04 17 F1 00 DA 99 E9 09 
22:20:15:232 Rx 0 00000154 s 8 04 17 14 00 00 00 00 00 
22:20:15:232 Rx 0 00000106 s 8 00 C0 00 00 FF FF 00 C5 
22:20:15:232 Rx 0 00000116 s 6 00 90 F4 11 96 42 
22:20:15:232 Rx 0 00000102 s 6 14 96 D0 FF 96 FF 
22:20:15:242 Rx 0 0000000E s 8 20 6D 3F FF 08 FF B0 80 
22:20:15:242 Rx 0 0000020E s 8 88 10 00 13 BB 00 06 00 
22:20:15:242 Rx 0 0000040E s 1 00 
22:20:15:242 Rx 0 00000168 s 8 A9 0C 1C 7F 00 00 B0 66 
22:20:15:242 Rx 0 00000108 s 4 00 00 0B 21 
22:20:15:242 Rx 0 00000168 s 8 A9 0C 1C 7F 00 00 B0 66 
22:20:15:242 Rx 0 000001F8 s 8 01 EF F0 76 D3 B7 00 00 
22:20:15:242 Rx 0 000002A8 s 8 00 00 00 00 00 00 00 1B 
22:20:15:242 Rx 0 00000228 s 4 40 C0 C0 87 
22:20:15:242 Rx 0 00000106 s 8 00 E0 00 00 FF FF 00 E5 
22:20:15:242 Rx 0 00000154 s 8 04 17 14 00 00 00 00 00 
22:20:15:242 Rx 0 00000116 s 6 00 90 F4 11 97 43 
22:20:15:242 Rx 0 000002C8 s 8 6E 80 03 7B 00 00 80 B6 
22:20:15:242 Rx 0 00000102 s 6 07 96 D2 FF 9B FF 
22:20:15:252 Rx 0 0000000E s 8 20 6D 3F FF 08 FF C0 D9 
22:20:15:252 Rx 0 000003D8 s 3 86 06 00 
22:20:15:252 Rx 0 00000408 s 1 A0 
22:20:15:252 Rx 0 00000228 s 4 40 C0 D0 4A 
22:20:15:252 Rx 0 00000154 s 8 04 17 14 00 00 00 00 00 
22:20:15:252 Rx 0 00000106 s 8 00 00 00 00 FF FF 00 05 
22:20:15:252 Rx 0 00000116 s 6 00 90 F4 11 98 44 
22:20:15:252 Rx 0 00000102 s 6 09 96 D8 FF 9A FF 
22:20:15:262 Rx 0 0000000E s 8 20 6C 3F FF 08 FF D0 52 
22:20:15:262 Rx 0 00000106 s 8 00 20 00 00 FF F1 00 4C 
22:20:15:262 Rx 0 00000288 s 8 00 00 00 00 00 1B 00 00 
22:20:15:262 Rx 0 00000168 s 8 AC 0C 1C 7F 00 00 C0 79 
22:20:15:262 Rx 0 000001F8 s 8 01 EF F0 86 D3 C7 00 00 
22:20:15:262 Rx 0 000002A8 s 8 00 00 00 00 00 00 00 1B 
22:20:15:262 Rx 0 00000228 s 4 40 C0 E0 00 
22:20:15:262 Rx 0 00000256 s 8 81 02 00 30 00 80 00 8B 
22:20:15:262 Rx 0 00000154 s 8 04 17 14 00 00 00 00 00 
22:20:15:262 Rx 0 00000256 s 8 81 02 00 30 00 80 00 8B 
22:20:15:262 Rx 0 00000116 s 6 00 90 F4 11 99 45 
22:20:15:262 Rx 0 00000102 s 6 0A 96 E1 FF 97 FF 
22:20:15:262 Rx 0 00000266 s 8 85 04 00 00 00 70 0A 4B 
22:20:15:272 Rx 0 0000000E s 8 20 6C 3F FF 08 FF E0 18 
22:20:15:272 Rx 0 0000021C s 8 00 08 00 00 86 01 00 14 
22:20:15:272 Rx 0 00000228 s 4 40 C0 F0 CD 
22:20:15:272 Rx 0 00000154 s 8 04 17 14 00 00 00 00 00 
22:20:15:272 Rx 0 00000238 s 8 00 FF 00 00 00 00 C1 2B 
22:20:15:272 Rx 0 00000154 s 8 04 17 14 00 00 00 00 00 
22:20:15:272 Rx 0 00000106 s 8 00 40 00 00 FF FF 00 45 
22:20:15:272 Rx 0 00000116 s 6 00 90 F4 11 9A 46 
22:20:15:272 Rx 0 00000102 s 6 15 96 E1 FF C8 FF 
22:20:15:282 Rx 0 0000000E s 8 20 6B 3F FF 08 FF F0 1A 
22:20:15:282 Rx 0 0000028A s 8 0A 00 FF 1F 00 01 00 00 
22:20:15:282 Rx 0 0000031A s 8 FA DD FF A3 F5 29 FF 87 
22:20:15:282 Rx 0 00000108 s 4 00 00 0D 23 
22:20:15:282 Rx 0 00000288 s 8 00 00 00 00 00 1B 00 00 
22:20:15:282 Rx 0 00000154 s 8 04 17 14 00 00 F1 00 9D 
22:20:15:282 Rx 0 000001F8 s 8 01 EF F0 96 D3 D7 00 00 
22:20:15:282 Rx 0 000005B8 s 8 00 2A 84 14 03 00 00 00 
22:20:15:282 Rx 0 00000228 s 4 40 C0 00 B2 
22:20:15:282 Rx 0 000002A8 s 8 00 00 00 00 00 00 00 1B 
22:20:15:282 Rx 0 00000106 s 8 00 60 00 00 FF FF 00 65 
22:20:15:282 Rx 0 00000102 s 6 23 96 DA FF D0 FF 
22:20:15:282 Rx 0 00000116 s 6 00 90 F4 11 9B 47 
22:20:15:282 Rx 0 00000102 s 6 23 96 DA FF D0 FF 
22:20:15:282 Rx 0 00000125 s 4 FF 02 34 0D 
22:20:15:282 Rx 0 00000138 s 5 00 1D 53 00 00 
22:20:15:292 Rx 0 0000025A s 8 00 00 00 00 00 00 00 00 
22:20:15:292 Rx 0 0000023A s 8 00 38 00 12 00 00 00 00 
22:20:15:292 Rx 0 0000021A s 8 FE 36 12 FE 69 05 07 AD 
22:20:15:292 Rx 0 0000022A s 8 67 01 5E 1D 00 00 00 00 
22:20:15:292 Rx 0 00000210 s 7 00 00 E3 1D 1F 86 FF 
22:20:15:292 Rx 0 0000029A s 8 01 36 FE 00 00 00 00 00 
22:20:15:292 Rx 0 00000106 s 8 00 80 00 00 FF FF 00 85 
22:20:15:292 Rx 0 00000228 s 4 40 C0 10 7F 
22:20:15:292 Rx 0 0000028C s 8 00 00 00 00 00 00 F0 00 
22:20:15:292 Rx 0 000002AC s 8 13 00 2C 90 00 00 D6 CE 
22:20:15:292 Rx 0 000002BC s 8 3F 40 41 78 7E 64 00 00 
22:20:15:292 Rx 0 00000154 s 8 04 17 14 00 00 00 00 00 
22:20:15:292 Rx 0 00000106 s 8 00 80 00 00 FF FF 00 85 
22:20:15:292 Rx 0 000002CC s 8 AB 7D 00 00 00 00 00 00 
22:20:15:292 Rx 0 00000116 s 6 00 90 F4 11 9C 48 
22:20:15:292 Rx 0 00000102 s 6 24 96 D3 FF CF FF 
22:20:15:292 Rx 0 000003A8 s 8 30 30 31 00 03 00 00 00 
22:20:15:292 Rx 0 0000048C s 1 00 
22:20:15:302 Rx 0 00000258 s 8 2F C8 36 D8 46 05 00 8F 
22:20:15:302 Rx 0 0000020A s 8 00 01 01 82 31 40 11 11 
22:20:15:302 Rx 0 0000079C s 8 05 00 00 00 00 00 00 00 
22:20:15:302 Rx 0 00000212 s 5 D8 00 12 71 00 
22:20:15:302 Rx 0 000006F2 s 8 03 4C 33 D3 DC 34 37 CD 
22:20:15:302 Rx 0 00000288 s 8 00 00 00 00 00 1B F1 00 
22:20:15:302 Rx 0 00000222 s 7 00 00 16 96 00 10 70 
22:20:15:302 Rx 0 000002A2 s 7 00 00 16 96 00 10 70 
22:20:15:302 Rx 0 00000232 s 4 05 24 68 82 
22:20:15:302 Rx 0 00000402 s 2 10 00 
22:20:15:302 Rx 0 000003A2 s 8 FF 0F FF 0F 00 00 00 32 
22:20:15:302 Rx 0 00000168 s 8 AE 0C 1C 7F 00 00 E0 9B 
22:20:15:302 Rx 0 00000108 s 4 00 00 0E 24 
22:20:15:302 Rx 0 00000168 s 8 AE 0C 1C 7F 00 00 E0 9B 
22:20:15:302 Rx 0 000001F8 s 8 01 EF F0 A5 D2 E7 00 00 
22:20:15:302 Rx 0 000002A8 s 8 00 00 00 00 00 00 00 1B 
22:20:15:302 Rx 0 00000228 s 4 40 C0 20 35 
22:20:15:302 Rx 0 0000029C s 8 00 08 00 00 87 01 00 14 
22:20:15:302 Rx 0 000002DC s 8 00 00 00 00 00 00 00 00 
22:20:15:302 Rx 0 00000358 s 8 04 07 50 01 F0 00 00 30 
22:20:15:302 Rx 0 00000116 s 6 00 90 F4 11 9D 49 
22:20:15:302 Rx 0 00000106 s 8 00 A0 00 00 FF FF 00 A5 
22:20:15:302 Rx 0 00000116 s 6 00 90 F4 11 9D 49 
22:20:15:302 Rx 0 00000102 s 6 0B 96 CF FF C6 FF 
22:20:15:302 Rx 0 0000026A s 3 FA 01 00 
22:20:15:312 Rx 0 0000000E s 8 20 6A 3F FF 08 FF 20 A4 
22:20:15:312 Rx 0 00000228 s 4 40 C0 30 F8 
22:20:15:312 Rx 0 00000154 s 8 04 17 14 00 00 00 00 00 
22:20:15:312 Rx 0 00000106 s 8 00 C0 00 00 FF FF 00 C5 
22:20:15:312 Rx 0 00000102 s 6 16 96 D2 FF 97 FF 
22:20:15:312 Rx 0 00000126 s 7 02 03 00 00 00 48 09 
22:20:15:312 Rx 0 00000102 s 6 16 96 D2 FF 97 FF 
22:20:15:312 Rx 0 000005E8 s 6 00 00 00 00 00 00 
22:20:15:322 Rx 0 0000000E s 8 20 6A 3F FF 08 FF 30 69 
22:20:15:322 Rx 0 00000288 s 8 00 00 00 00 00 1B 00 00 
22:20:15:322 Rx 0 00000108 s 4 00 00 0F 25 
22:20:15:322 Rx 0 00000168 s 8 B0 0C 1C 7F 00 00 F0 AD 
22:20:15:322 Rx 0 000001F8 s 8 01 EF F0 B5 D2 F7 00 00 
22:20:15:322 Rx 0 00000154 s 8 04 17 14 00 00 00 00 00 
22:20:15:322 Rx 0 00000228 s 4 40 C0 40 A1 
22:20:15:322 Rx 0 00000154 s 8 04 17 14 00 00 00 00 00 
22:20:15:322 Rx 0 00000106 s 8 00 E0 00 00 FF FF 00 E5 
22:20:15:322 Rx 0 00000754 s 8 65 FD FF 00 00 00 00 00 
22:20:15:322 Rx 0 00000116 s 6 00 90 F4 11 9F 4B 
22:20:15:322 Rx 0 00000102 s 6 09 96 D6 FF 93 FF 
22:20:15:322 Rx 0 00000754 s 8 67 00 95 00 00 00 00 00 
22:20:15:322 Rx 0 00000368 s 8 00 5A 1F 00 00 08 00 FF 
22:20:15:332 Rx 0 00000754 s 8 0A 00 00 00 00 00 00 00 
22:20:15:332 Rx 0 00000754 s 8 64 00 00 00 00 00 00 00 
22:20:15:332 Rx 0 00000228 s 4 40 C0 50 6C 
22:20:15:332 Rx 0 00000268 s 8 55 00 3C 02 BD 07 36 00 
22:20:15:332 Rx 0 0000000E s 8 20 6A 3F FF 08 FF 40 30 
22:20:15:332 Rx 0 0000036C s 8 00 00 00 00 00 00 00 00 
22:20:15:332 Rx 0 0000020C s 8 00 00 00 00 00 00 F0 00 
22:20:15:332 Rx 0 0000022C s 8 00 00 17 8F 00 00 D6 CE 
22:20:15:332 Rx 0 0000023C s 8 3F 40 41 78 7E 64 00 00 
22:20:15:332 Rx 0 00000398 s 8 55 53 00 00 00 F1 00 30 
22:20:15:332 Rx 0 00000116 s 6 00 90 F4 11 90 3C 
22:20:15:332 Rx 0 0000040C s 1 00 
22:20:15:332 Rx 0 00000154 s 8 04 17 14 00 00 00 00 00 
22:20:15:332 Rx 0 00000248 s 7 30 30 1D 8C 01 15 00 
22:20:15:332 Rx 0 00000106 s 8 00 00 00 00 FF FF 00 05 
22:20:15:332 Rx 0 0000051C s 8 01 00 00 00 FE 00 00 09 
22:20:15:332 Rx 0 00000102 s 6 16 96 DC FF 98 FF 
22:20:15:332 Rx 0 00000116 s 6 00 90 F4 11 90 3C 
22:20:15:332 Rx 0 0000071C s 8 03 00 00 00 00 00 00 00 
22:20:15:342 Rx 0 000002A8 s 8 00 00 00 00 00 00 00 1B 
22:20:15:342 Rx 0 0000020E s 8 88 10 00 13 BB 00 06 00 
22:20:15:342 Rx 0 0000040E s 1 00 
22:20:15:342 Rx 0 00000288 s 8 00 00 00 00 00 1B 00 00 
22:20:15:342 Rx 0 00000108 s 4 00 00 00 16 
22:20:15:342 Rx 0 00000168 s 8 B1 0C 1C 7F 00 00 00 BE 
22:20:15:342 Rx 0 000001F8 s 8 01 EF F0 C6 D3 07 00 00 
22:20:15:342 Rx 0 000002C8 s 8 6E 80 03 7B 00 00 90 C6 
22:20:15:342 Rx 0 0000037C s 8 00 00 00 00 00 00 00 00 
22:20:15:342 Rx 0 000002C8 s 8 6E 80 03 7B 00 00 90 C6 
22:20:15:342 Rx 0 00000228 s 4 40 C0 60 26 
22:20:15:342 Rx 0 00000154 s 8 04 17 14 00 00 00 00 00 
22:20:15:342 Rx 0 00000106 s 8 00 20 00 00 FF FF 00 25 
22:20:15:342 Rx 0 00000116 s 6 00 90 F4 11 91 3D 
22:20:15:342 Rx 0 00000102 s 6 09 96 E1 FF 9E FF 
22:20:15:352 Rx 0 0000000E s 8 20 6A 3F FF 08 FF 60 B7 
22:20:15:352 Rx 0 00000228 s 4 40 C0 70 EB 
22:20:15:352 Rx 0 000003D8 s 3 86 06 00 
22:20:15:352 Rx 0 00000228 s 4 40 C0 70 EB 
22:20:15:352 Rx 0 00000408 s 1 B0 
22:20:15:352 Rx 0 00000154 s 8 04 17 14 00 00 00 00 00 
22:20:15:352 Rx 0 00000106 s 8 00 40 00 00 FF FF 00 45 
22:20:15:352 Rx 0 00000116 s 6 00 90 F4 11 92 3E 
22:20:15:352 Rx 0 00000102 s 6 24 96 DE FF D0 FF 
22:20:15:362 Rx 0 0000000E s 8 20 6A 3F FF 08 FF 70 7A 
22:20:15:362 Rx 0 00000108 s 4 00 00 01 17 
22:20:15:362 Rx 0 00000288 s 8 00 00 00 00 00 1B 00 00 
22:20:15:362 Rx 0 00000106 s 8 00 60 00 00 FF F1 00 04 
22:20:15:362 Rx 0 000001F8 s 8 01 EF F0 D6 D3 17 00 00 
22:20:15:362 Rx 0 000002A8 s 8 00 00 00 00 00 00 00 1B 
22:20:15:362 Rx 0 0000035C s 8 00 00 00 00 00 00 00 00 
22:20:15:362 Rx 0 00000228 s 4 40 C0 80 94 
22:20:15:362 Rx 0 00000154 s 8 04 17 14 00 00 00 00 00 
22:20:15:362 Rx 0 00000116 s 6 00 90 F4 11 93 3F 
22:20:15:362 Rx 0 00000256 s 8 81 02 00 30 00 90 00 9B 
22:20:15:362 Rx 0 00000116 s 6 00 90 F4 11 93 3F 
22:20:15:362 Rx 0 00000102 s 6 2E 96 D8 FF CF FF 
22:20:15:362 Rx 0 00000266 s 8 85 04 00 00 00 70 0A 4B 
22:20:15:372 Rx 0 0000000E s 8 20 6B 3F FF 08 FF 80 43 
22:20:15:372 Rx 0 0000032C s 8 00 00 00 00 00 00 00 00 
22:20:15:372 Rx 0 0000021C s 8 00 08 00 00 86 01 00 14 
22:20:15:372 Rx 0 00000228 s 4 40 C0 90 59 
22:20:15:372 Rx 0 00000106 s 8 00 80 00 00 FF FF 00 85 
22:20:15:372 Rx 0 00000154 s 8 04 17 14 00 00 00 00 00 
22:20:15:372 Rx 0 00000106 s 8 00 80 00 00 FF FF 00 85 
22:20:15:372 Rx 0 00000116 s 6 00 90 F4 11 94 40 
22:20:15:372 Rx 0 00000102 s 6 23 96 D0 FF CC FF 
22:20:15:382 Rx 0 00000238 s 8 00 FF 00 00 00 00 D1 E6 
22:20:15:382 Rx 0 0000000E s 8 20 6B 3F FF 08 FF 90 8E 
22:20:15:382 Rx 0 0000028A s 8 0A 00 FF 1F 00 01 00 00 
22:20:15:382 Rx 0 0000032A s 8 17 17 12 00 64 00 1B 00 
22:20:15:382 Rx 0 00000108 s 4 00 00 02 18 
22:20:15:382 Rx 0 00000288 s 8 00 00 00 00 00 1B 00 00 
22:20:15:382 Rx 0 00000138 s 5 00 1E 54 00 00 
22:20:15:382 Rx 0 000001F8 s 8 01 EF F0 E6 D3 27 00 00 
22:20:15:382 Rx 0 000002A8 s 8 00 00 00 00 00 00 00 1B 
22:20:15:382 Rx 0 0000033C s 8 00 55 55 55 01 00 00 00 
22:20:15:382 Rx 0 00000228 s 4 40 C0 A0 13 
22:20:15:382 Rx 0 00000125 s 4 FF 02 35 0E 
22:20:15:382 Rx 0 00000106 s 8 00 A0 00 00 FF FF F1 00 
22:20:15:382 Rx 0 00000106 s 8 00 A0 00 00 FF FF 00 A5 
22:20:15:382 Rx 0 00000116 s 6 00 90 F4 11 95 41 
22:20:15:382 Rx 0 00000102 s 6 0A 96 D0 FF 95 FF 
22:20:15:392 Rx 0 0000025A s 8 00 00 00 00 00 00 00 00 
22:20:15:392 Rx 0 0000023A s 8 00 38 00 12 00 00 00 00 
22:20:15:392 Rx 0 0000021A s 8 FE 36 13 FE 69 05 07 AD 
22:20:15:392 Rx 0 0000022A s 8 67 01 5E 1D 00 00 00 00 
22:20:15:392 Rx 0 00000210 s 7 00 00 E3 1D 1F 86 FF 
22:20:15:392 Rx 0 0000029A s 8 01 36 FE 00 00 00 00 00 
22:20:15:392 Rx 0 00000154 s 8 04 17 14 00 00 00 00 00 
22:20:15:392 Rx 0 00000228 s 4 40 C0 B0 DE 
22:20:15:392 Rx 0 0000028C s 8 00 00 00 00 00 00 F0 00 
22:20:15:392 Rx 0 000002AC s 8 0C 00 28 90 00 00 D6 CE 
22:20:15:392 Rx 0 000002BC s 8 3F 40 41 78 7E 64 00 00 
22:20:15:392 Rx 0 00000106 s 8 00 C0 00 00 FF FF 00 C5 
22:20:15:392 Rx 0 000002CC s 8 AB 7D 00 00 00 00 00 00 
22:20:15:392 Rx 0 00000116 s 6 00 90 F4 11 96 42 
22:20:15:392 Rx 0 000002CC s 8 AB 7D 00 00 00 00 00 00 
22:20:15:392 Rx 0 00000102 s 6 08 96 D4 FF 96 FF 
22:20:15:392 Rx 0 000003A8 s 8 30 30 31 00 03 00 00 00 
22:20:15:392 Rx 0 0000048C s 1 00 
22:20:15:392 Rx 0 00000258 s 8 2F C8 36 D8 46 05 00 8F 
22:20:15:402 Rx 0 0000020A s 8 00 01 01 82 41 40 11 11 
22:20:15:402 Rx 0 0000079C s 8 06 00 48 00 04 00 00 40 
22:20:15:402 Rx 0 00000212 s 5 D8 00 12 71 00 
22:20:15:402 Rx 0 000006F2 s 8 04 4D B3 D3 FC 34 2B CD 
22:20:15:402 Rx 0 00000288 s 8 00 00 00 00 00 1B F1 00 
22:20:15:402 Rx 0 00000222 s 7 00 00 13 96 00 10 70 
22:20:15:402 Rx 0 000002A2 s 7 00 00 13 96 00 10 70 
22:20:15:402 Rx 0 00000232 s 4 05 24 68 82 
22:20:15:402 Rx 0 00000402 s 2 10 00 
22:20:15:402 Rx 0 000003A2 s 8 FF 0F FF 0F 00 00 00 32 
22:20:15:402 Rx 0 00000168 s 8 B5 0C 1C 7F 00 00 30 F2 
22:20:15:402 Rx 0 00000108 s 4 00 00 03 19 
22:20:15:402 Rx 0 00000168 s 8 B5 0C 1C 7F 00 00 30 F2 
22:20:15:402 Rx 0 000001F8 s 8 01 EF F0 F6 D3 37 00 00 
22:20:15:402 Rx 0 000002A8 s 8 00 00 00 00 00 00 00 1B 
22:20:15:402 Rx 0 00000358 s 8 04 07 50 01 F0 00 00 30 
22:20:15:402 Rx 0 00000228 s 4 40 C0 C0 87 
22:20:15:402 Rx 0 0000029C s 8 00 08 00 00 87 01 00 14 
22:20:15:402 Rx 0 000002DC s 8 00 00 00 00 00 00 00 00 
22:20:15:402 Rx 0 00000154 s 8 04 17 14 00 00 00 00 00 
22:20:15:402 Rx 0 00000106 s 8 00 E0 00 00 FF FF 00 E5 
22:20:15:402 Rx 0 00000116 s 6 00 90 F4 11 97 43 
22:20:15:402 Rx 0 00000102 s 6 09 96 D9 FF 98 FF 
22:20:15:402 Rx 0 0000026A s 3 FA 01 00 
22:20:15:412 Rx 0 0000000E s 8 20 6B 3F FF 08 FF C0 50 
22:20:15:412 Rx 0 00000228 s 4 40 C0 D0 4A 
22:20:15:412 Rx 0 00000106 s 8 00 00 00 00 FF FF 00 05 
22:20:15:412 Rx 0 00000154 s 8 04 17 14 00 00 00 00 00 
22:20:15:412 Rx 0 00000102 s 6 16 96 E1 FF 96 FF 
22:20:15:412 Rx 0 00000126 s 7 02 03 00 00 00 48 09 
22:20:15:412 Rx 0 00000102 s 6 16 96 E1 FF 96 FF 
22:20:15:422 Rx 0 0000000E s 8 20 6B 3F FF 08 FF D0 9D 
22:20:15:422 Rx 0 00000288 s 8 00 00 00 00 00 1B 00 00 
22:20:15:422 Rx 0 00000108 s 4 00 00 04 1A 
22:20:15:422 Rx 0 00000168 s 8 B6 0C 1C 7F 00 00 40 03 
22:20:15:422 Rx 0 000001F8 s 8 01 EF F0 07 D4 47 00 00 
22:20:15:422 Rx 0 000002A8 s 8 00 00 00 00 00 00 00 1B 
22:20:15:422 Rx 0 00000754 s 8 65 FD FF 00 00 F1 00 88 
22:20:15:422 Rx 0 00000754 s 8 65 FD FF 00 00 00 00 00 
22:20:15:422 Rx 0 00000106 s 8 00 20 00 00 FF FF 00 25 
22:20:15:422 Rx 0 00000116 s 6 00 90 F4 11 99 45 
22:20:15:422 Rx 0 00000102 s 6 15 96 DF FF CD FF 
22:20:15:422 Rx 0 00000368 s 8 00 5A 1F 00 00 08 00 FF 
22:20:15:432 Rx 0 0000000E s 8 20 6B 3F FF 08 FF E0 D7 
22:20:15:432 Rx 0 00000268 s 8 55 00 1D 02 BD 07 36 00 
22:20:15:432 Rx 0 0000023C s 8 3F 40 41 78 7E 64 00 00 
22:20:15:432 Rx 0 0000022C s 8 00 00 16 8F 00 00 D6 CE 
22:20:15:432 Rx 0 00000154 s 8 04 17 14 00 00 00 00 00 
22:20:15:432 Rx 0 00000228 s 4 40 C0 F0 CD 
22:20:15:432 Rx 0 0000024C s 8 AB 7D 00 00 00 00 00 00 
22:20:15:432 Rx 0 0000040C s 1 00 
22:20:15:432 Rx 0 0000053C s 8 0A 01 12 00 09 00 06 00 
22:20:15:432 Rx 0 0000071C s 8 04 00 00 00 00 00 00 00 
22:20:15:432 Rx 0 00000106 s 8 00 40 00 00 FF FF 00 45 
22:20:15:432 Rx 0 00000248 s 7 30 30 1D 8C 01 15 00 
22:20:15:432 Rx 0 00000116 s 6 00 90 F4 11 9A 46 
22:20:15:432 Rx 0 00000248 s 7 30 30 1D 8C 01 15 00 
22:20:15:432 Rx 0 00000102 s 6 15 96 DA FF D0 FF 
22:20:15:432 Rx 0 00000754 s 8 67 00 95 00 00 00 00 00 
22:20:15:432 Rx 0 00000754 s 8 66 00 00 00 00 00 00 00 
22:20:15:442 Rx 0 00000754 s 8 64 00 00 00 00 00 00 00 
22:20:15:442 Rx 0 00000754 s 8 0A 00 00 00 00 00 00 00 
22:20:15:442 Rx 0 0000000E s 8 20 6B 3F FF 08 FF F0 1A 
22:20:15:442 Rx 0 00000288 s 8 00 00 00 00 00 1B 00 00 
22:20:15:442 Rx 0 0000040E s 1 00 
22:20:15:442 Rx 0 00000106 s 8 00 60 00 00 FF FF 00 65 
22:20:15:442 Rx 0 00000108 s 4 00 00 05 1B 
22:20:15:442 Rx 0 00000168 s 8 B7 0C 1C 7F 00 00 50 14 
22:20:15:442 Rx 0 000001F8 s 8 01 EF F0 16 D3 57 00 00 
22:20:15:442 Rx 0 000002A8 s 8 00 00 00 00 00 00 00 1B 
22:20:15:442 Rx 0 00000228 s 4 40 C0 00 B2 
22:20:15:442 Rx 0 00000154 s 8 04 17 14 00 00 00 00 00 
22:20:15:442 Rx 0 000002C8 s 8 6E 80 03 7B 00 00 A0 D6 
22:20:15:442 Rx 0 00000116 s 6 00 90 F4 11 9B 47 
22:20:15:442 Rx 0 000002C8 s 8 6E 80 03 7B 00 00 A0 D6 
22:20:15:442 Rx 0 00000102 s 6 21 96 D3 FF CE FF 
22:20:15:452 Rx 0 0000000E s 8 20 6B 3F FF 08 FF 00 65 
22:20:15:452 Rx 0 000003D8 s 3 86 06 00 
22:20:15:452 Rx 0 00000408 s 1 C0 
22:20:15:452 Rx 0 00000228 s 4 40 C0 10 7F 
22:20:15:452 Rx 0 00000106 s 8 00 80 00 00 FF FF 00 85 
22:20:15:452 Rx 0 00000512 s 8 01 00 00 00 FE 00 00 1F 
22:20:15:452 Rx 0 00000116 s 6 00 90 F4 11 9C 48 
22:20:15:452 Rx 0 00000512 s 8 01 00 00 00 FE 00 00 1F 
22:20:15:452 Rx 0 00000102 s 6 07 96 D0 FF C0 FF 
22:20:15:452 Rx 0 00000302 s 3 60 4B 0D 
22:20:15:452 Rx 0 00000342 s 8 00 00 00 00 00 00 00 00 
22:20:15:462 Rx 0 00000382 s 8 ED F6 09 28 9F 00 A0 24 
22:20:15:462 Rx 0 00000352 s 8 00 00 00 00 00 00 00 00 
22:20:15:462 Rx 0 00000312 s 8 00 00 19 34 32 30 ED 27 
22:20:15:462 Rx 0 00000362 s 8 00 00 00 00 00 00 00 00 
22:20:15:462 Rx 0 00000332 s 8 D5 07 85 7E D2 77 89 7C 
22:20:15:462 Rx 0 000003F2 s 6 EF 95 FF 71 FF 51 
22:20:15:462 Rx 0 00000522 s 8 00 00 00 00 00 18 FC 00 
22:20:15:462 Rx 0 00000372 s 8 00 00 00 00 00 00 00 00 
22:20:15:462 Rx 0 000003D2 s 8 7C F8 4F 00 33 07 54 00 
22:20:15:462 Rx 0 000003C2 s 8 00 00 00 00 00 00 00 00 
22:20:15:462 Rx 0 00000242 s 8 00 00 00 00 00 00 00 00 
22:20:15:462 Rx 0 000003E2 s 8 00 00 00 00 00 00 00 00 
22:20:15:462 Rx 0 00000412 s 6 08 0A C7 56 6A 00 
22:20:15:462 Rx 0 00000322 s 8 00 00 00 00 00 00 00 00 
22:20:15:462 Rx 0 00000412 s 6 08 0A C7 56 6A 00 
22:20:15:462 Rx 0 0000000E s 8 20 6B 3F FF 08 FF 10 A8 
22:20:15:462 Rx 0 000007E2 s 8 4E 00 00 00 00 00 00 00 
22:20:15:462 Rx 0 00000288 s 8 00 00 00 00 00 1B 00 00 
22:20:15:462 Rx 0 00000108 s 4 00 00 06 1C 
22:20:15:462 Rx 0 00000168 s 8 B8 0C 1C 7F 00 00 60 25 
22:20:15:462 Rx 0 000001F8 s 8 01 EF F0 25 D2 67 00 00 
22:20:15:462 Rx 0 00000154 s 8 04 17 14 00 00 00 00 00 
22:20:15:462 Rx 0 00000228 s 4 40 C0 20 35 
22:20:15:462 Rx 0 00000154 s 8 04 17 14 00 00 00 00 00 
22:20:15:462 Rx 0 00000106 s 8 00 A0 00 00 FF FF 00 A5 
22:20:15:462 Rx 0 00000256 s 8 81 02 00 30 00 A0 00 AB 
22:20:15:462 Rx 0 00000116 s 6 00 90 F4 11 9D 49 
22:20:15:462 Rx 0 00000266 s 8 85 04 00 00 00 70 0A 4B 
22:20:15:462 Rx 0 00000102 s 6 07 96 D2 FF 91 FF 
22:20:15:472 Rx 0 00000278 s 8 12 00 40 02 04 00 A0 FE 
22:20:15:472 Rx 0 00000228 s 4 40 C0 30 F8 
22:20:15:472 Rx 0 0000021C s 8 00 08 00 00 86 01 00 14 
22:20:15:472 Rx 0 00000228 s 4 40 C0 30 F8 
22:20:15:472 Rx 0 00000238 s 8 00 FF 00 00 00 00 E1 AC 
22:20:15:472 Rx 0 0000025C s 8 01 02 26 9A 15 00 66 04 
22:20:15:472 Rx 0 00000154 s 8 04 17 14 00 00 00 00 00 
22:20:15:472 Rx 0 00000106 s 8 00 C0 00 00 FF FF 00 C5 
22:20:15:472 Rx 0 00000116 s 6 00 90 F4 11 9E 4A 
22:20:15:472 Rx 0 00000102 s 6 14 96 D6 FF 94 FF 
22:20:15:482 Rx 0 0000033A s 8 6B 92 FF 7F 00 00 11 11 
22:20:15:482 Rx 0 0000028A s 8 0A 00 FF 1F 00 01 00 00 
22:20:15:482 Rx 0 00000228 s 4 40 C0 40 A1 
22:20:15:482 Rx 0 000004BA s 8 00 00 00 00 00 00 00 00 
22:20:15:482 Rx 0 00000288 s 8 00 00 00 00 00 1B 00 00 
22:20:15:482 Rx 0 00000108 s 4 00 00 07 1D 
22:20:15:482 Rx 0 00000168 s 8 BA 0C 1C 7F 00 00 70 37 
22:20:15:482 Rx 0 000001F8 s 8 01 EF F0 35 D2 77 00 00 
22:20:15:482 Rx 0 000002A8 s 8 00 00 00 00 00 00 00 1B 
22:20:15:482 Rx 0 00000106 s 8 00 E0 00 00 FF F1 00 17 
22:20:15:482 Rx 0 00000106 s 8 00 E0 00 00 FF FF 00 E5 
22:20:15:482 Rx 0 00000116 s 6 00 90 F4 11 9F 4B 
22:20:15:482 Rx 0 00000102 s 6 07 96 DE FF 9A FF 
22:20:15:492 Rx 0 0000025A s 8 00 00 00 00 00 00 00 00 
22:20:15:492 Rx 0 00000125 s 4 FF 02 36 0F 
22:20:15:492 Rx 0 0000023A s 8 00 38 00 12 00 00 00 00 
22:20:15:492 Rx 0 00000138 s 5 00 1F 55 00 00 
22:20:15:492 Rx 0 0000027A s 7 30 30 0D 8C 09 15 00 
22:20:15:492 Rx 0 0000021A s 8 FE 36 12 FE 69 05 07 AD 
22:20:15:492 Rx 0 0000027A s 7 30 30 0D 8C 09 15 00 
22:20:15:492 Rx 0 0000022A s 8 67 01 5E 1D 00 00 00 00 
22:20:15:492 Rx 0 00000210 s 7 00 00 E3 1D 1E 86 FF 
22:20:15:492 Rx 0 0000000E s 8 20 6B 3F FF 08 FF 40 76 
22:20:15:492 Rx 0 00000228 s 4 40 C0 50 6C 
22:20:15:492 Rx 0 0000028C s 8 00 00 00 00 00 00 F0 00 
22:20:15:492 Rx 0 000002AC s 8 0D 00 26 90 00 00 D6 CE 
22:20:15:492 Rx 0 00000106 s 8 00 00 00 00 FF FF 00 05 
22:20:15:492 Rx 0 00000154 s 8 04 17 14 00 00 00 00 00 
22:20:15:492 Rx 0 00000106 s 8 00 00 00 00 FF FF 00 05 
22:20:15:492 Rx 0 000002CC s 8 AB 7D 00 00 00 00 00 00 
22:20:15:492 Rx 0 00000102 s 6 14 96 E2 FF A2 FF 
22:20:15:492 Rx 0 00000116 s 6 00 90 F4 11 90 3C 
22:20:15:492 Rx 0 000003A8 s 8 30 30 31 00 03 00 00 00 
22:20:15:492 Rx 0 0000048C s 1 00 
22:20:15:502 Rx 0 00000258 s 8 2F C8 36 D8 46 05 00 8F 
22:20:15:502 Rx 0 00000202 s 8 FD 5E 45 9D C4 09 1E 2D 
22:20:15:502 Rx 0 0000079C s 8 07 00 00 00 00 04 A3 00 
22:20:15:502 Rx 0 00000202 s 8 FD 5E 45 9D C4 09 1E 2D 
22:20:15:502 Rx 0 000006F2 s 8 05 4C 33 D3 EC 34 37 CD 
22:20:15:502 Rx 0 00000212 s 5 D8 00 12 71 00 
22:20:15:502 Rx 0 0000000E s 8 20 6B 3F FF 08 FF 50 BB 
22:20:15:502 Rx 0 00000222 s 7 00 00 14 96 00 10 70 
22:20:15:502 Rx 0 000002A2 s 7 00 00 14 96 00 10 70 
22:20:15:502 Rx 0 00000232 s 4 00 24 68 82 
22:20:15:502 Rx 0 00000288 s 8 00 00 00 F1 00 41 B8 ED 
22:20:15:502 Rx 0 00000288 s 8 00 00 00 00 00 1B 00 00 
22:20:15:502 Rx 0 00000108 s 4 00 00 08 1E 
22:20:15:502 Rx 0 00000168 s 8 BD 0C 1C 7F 00 00 80 4A 
22:20:15:502 Rx 0 000001F8 s 8 01 EF F0 46 D3 87 00 00 
22:20:15:502 Rx 0 000002A8 s 8 00 00 00 00 00 00 00 1B 
22:20:15:502 Rx 0 00000228 s 4 40 C0 60 26 
22:20:15:502 Rx 0 0000029C s 8 00 08 00 00 87 01 00 14 
22:20:15:502 Rx 0 000002DC s 8 00 00 00 00 00 00 00 00 
22:20:15:502 Rx 0 00000358 s 8 04 07 50 01 F0 00 00 30 
22:20:15:502 Rx 0 00000154 s 8 04 17 14 00 00 00 00 00 
22:20:15:502 Rx 0 00000106 s 8 00 20 00 00 FF FF 00 25 
22:20:15:502 Rx 0 00000116 s 6 00 90 F4 11 91 3D 
22:20:15:502 Rx 0 00000102 s 6 15 96 DD FF CE FF 
22:20:15:502 Rx 0 0000026A s 3 FA 01 00 
22:20:15:512 Rx 0 0000000E s 8 20 6B 3F FF 08 FF 60 F1 
22:20:15:512 Rx 0 00000228 s 4 40 C0 70 EB 
22:20:15:512 Rx 0 00000116 s 6 00 90 F4 11 92 3E 
22:20:15:512 Rx 0 00000106 s 8 00 40 00 00 FF FF 00 45 
22:20:15:512 Rx 0 00000116 s 6 00 90 F4 11 92 3E 
22:20:15:512 Rx 0 00000126 s 7 02 03 00 00 00 48 09 
22:20:15:512 Rx 0 00000102 s 6 21 96 D6 FF CE FF 
22:20:15:522 Rx 0 0000000E s 8 20 6B 3F FF 08 FF 70 3C 
22:20:15:522 Rx 0 00000288 s 8 00 00 00 00 00 1B 00 00 
22:20:15:522 Rx 0 00000108 s 4 00 00 09 1F 
22:20:15:522 Rx 0 00000168 s 8 BF 0C 1C 7F 00 00 90 5C 
22:20:15:522 Rx 0 00000228 s 4 40 C0 80 94 
22:20:15:522 Rx 0 000002A8 s 8 00 00 00 00 00 00 00 1B 
22:20:15:522 Rx 0 00000708 s 8 00 00 00 00 00 F1 00 2E 
22:20:15:522 Rx 0 00000754 s 8 65 FD FF 00 00 00 00 00 
22:20:15:522 Rx 0 00000106 s 8 00 60 00 00 FF FF 00 65 
22:20:15:522 Rx 0 00000116 s 6 00 90 F4 11 93 3F 
22:20:15:522 Rx 0 00000102 s 6 13 96 CF FF CF FF 
22:20:15:522 Rx 0 00000368 s 8 00 5A 1F 00 00 08 00 FF 
22:20:15:522 Rx 0 00000708 s 8 00 00 00 00 00 00 00 00 
22:20:15:532 Rx 0 00000248 s 7 30 30 1D 8C 01 15 00 
22:20:15:532 Rx 0 0000040C s 1 00 
22:20:15:532 Rx 0 00000268 s 8 55 00 1D 02 BD 07 36 00 
22:20:15:532 Rx 0 0000020C s 8 00 00 00 00 00 00 F0 00 
22:20:15:532 Rx 0 0000022C s 8 00 00 22 8F 00 00 D6 CE 
22:20:15:532 Rx 0 0000023C s 8 3F 40 41 78 7E 64 00 00 
22:20:15:532 Rx 0 00000228 s 4 40 C0 90 59 
22:20:15:532 Rx 0 0000024C s 8 AB 7D 00 00 00 00 00 00 
22:20:15:532 Rx 0 00000154 s 8 04 17 F1 00 50 2D EE 09 
22:20:15:532 Rx 0 00000154 s 8 04 17 14 00 00 00 00 00 
22:20:15:532 Rx 0 0000071C s 8 05 00 00 00 00 00 00 00 
22:20:15:532 Rx 0 00000106 s 8 00 80 00 00 FF FF 00 85 
22:20:15:532 Rx 0 00000754 s 8 67 00 95 00 00 00 00 00 
22:20:15:532 Rx 0 00000102 s 6 14 96 D1 FF 9B FF 
22:20:15:532 Rx 0 00000116 s 6 00 90 F4 11 94 40 
22:20:15:532 Rx 0 00000754 s 8 66 00 00 00 00 00 00 00 
22:20:15:542 Rx 0 0000000E s 8 20 6A 3F FF 08 FF 90 C8 
22:20:15:542 Rx 0 00000754 s 8 0A 00 00 00 00 00 00 00 
22:20:15:542 Rx 0 000002A8 s 8 00 00 00 00 00 00 00 1B 
22:20:15:542 Rx 0 0000020E s 8 88 10 00 13 BB 00 06 00 
22:20:15:542 Rx 0 0000040E s 1 00 
22:20:15:542 Rx 0 00000288 s 8 00 00 00 00 00 1B 00 00 
22:20:15:542 Rx 0 00000108 s 4 00 00 0A 20 
22:20:15:542 Rx 0 00000168 s 8 C2 0C 1C 7F 00 00 A0 6F 
22:20:15:542 Rx 0 000001F8 s 8 01 EF F0 66 D3 A7 00 00 
22:20:15:542 Rx 0 00000106 s 8 00 A0 00 00 FF FF 00 A5 
22:20:15:542 Rx 0 00000228 s 4 40 C0 A0 13 
22:20:15:542 Rx 0 00000106 s 8 00 A0 00 00 FF FF 00 A5 
22:20:15:542 Rx 0 00000154 s 8 04 17 14 00 00 00 00 00 
22:20:15:542 Rx 0 00000116 s 6 00 90 F4 11 95 41 
22:20:15:542 Rx 0 000002C8 s 8 6E 80 03 7B 00 00 B0 E6 
22:20:15:542 Rx 0 00000102 s 6 07 96 D5 FF 9C FF 
22:20:15:552 Rx 0 00000798 s 8 00 00 00 00 00 00 00 00 
22:20:15:552 Rx 0 0000000E s 8 20 6A 3F FF 08 FF A0 82 
22:20:15:552 Rx 0 00000408 s 1 D0 
22:20:15:552 Rx 0 000007B8 s 8 00 00 00 00 00 00 00 00 
22:20:15:552 Rx 0 00000408 s 1 D0 
22:20:15:552 Rx 0 00000228 s 4 40 C0 B0 DE 
22:20:15:552 Rx 0 00000154 s 8 04 17 14 00 00 00 00 00 
22:20:15:552 Rx 0 00000106 s 8 00 C0 00 00 FF FF 00 C5 
22:20:15:552 Rx 0 00000116 s 6 00 90 F4 11 96 42 
22:20:15:552 Rx 0 00000102 s 6 07 96 DA FF 96 FF 
22:20:15:562 Rx 0 0000000E s 8 20 6A 3F FF 08 FF B0 4F 
22:20:15:562 Rx 0 00000288 s 8 00 00 00 00 00 1B 00 00 
22:20:15:562 Rx 0 00000108 s 4 00 00 0B 21 
22:20:15:562 Rx 0 00000154 s 8 04 17 14 00 00 00 00 00 
22:20:15:562 Rx 0 00000168 s 8 C5 0C 1C 7F 00 00 B0 82 
22:20:15:562 Rx 0 000001F8 s 8 01 EF F0 76 D3 B7 00 00 
22:20:15:562 Rx 0 000002A8 s 8 00 00 00 00 00 00 00 1B 
22:20:15:562 Rx 0 00000228 s 4 40 C0 C0 87 
22:20:15:562 Rx 0 000007C8 s 8 00 00 00 00 00 00 00 00 
22:20:15:562 Rx 0 00000106 s 8 00 E0 00 00 FF FF 00 E5 
22:20:15:562 Rx 0 00000116 s 6 00 90 F4 11 97 43 
22:20:15:562 Rx 0 00000256 s 8 81 02 00 30 00 B0 00 BB 
22:20:15:562 Rx 0 00000116 s 6 00 90 F4 11 97 43 
22:20:15:562 Rx 0 00000102 s 6 13 96 E0 FF 99 FF 
22:20:15:562 Rx 0 00000266 s 8 85 04 00 00 00 70 0A 4B 
22:20:15:572 Rx 0 0000000E s 8 20 6A 3F FF 08 FF C0 16 
22:20:15:572 Rx 0 0000021C s 8 00 08 00 00 86 01 00 14 
22:20:15:572 Rx 0 00000228 s 4 40 C0 D0 4A 
22:20:15:572 Rx 0 0000025C s 8 01 02 26 9A 79 00 6C 04 
22:20:15:572 Rx 0 00000106 s 8 00 00 00 00 FF FF 00 05 
22:20:15:572 Rx 0 00000154 s 8 04 17 14 00 00 00 00 00 
22:20:15:572 Rx 0 00000106 s 8 00 00 00 00 FF FF 00 05 
22:20:15:572 Rx 0 00000238 s 8 00 FF 00 00 00 00 F1 61 
22:20:15:572 Rx 0 00000116 s 6 00 90 F4 11 98 44 
22:20:15:572 Rx 0 00000102 s 6 20 96 DF FF D1 FF 
22:20:15:582 Rx 0 0000000E s 8 20 6A 3F FF 08 FF D0 DB 
22:20:15:582 Rx 0 0000028A s 8 0A 00 FF 1F 00 01 00 00 
22:20:15:582 Rx 0 0000036A s 8 FF 07 00 00 9F 9F 80 80 
22:20:15:582 Rx 0 00000108 s 4 00 00 0C 22 
22:20:15:582 Rx 0 00000288 s 8 00 00 00 00 00 1B 00 00 
22:20:15:582 Rx 0 000003C8 s 8 FF FF 34 C1 00 F1 00 7D 
22:20:15:582 Rx 0 000001F8 s 8 01 EF F0 86 D3 C7 00 00 
22:20:15:582 Rx 0 000002A8 s 8 00 00 00 00 00 00 00 1B 
22:20:15:582 Rx 0 00000228 s 4 40 C0 E0 00 
22:20:15:582 Rx 0 00000125 s 4 FF 03 28 00 
22:20:15:582 Rx 0 00000138 s 5 00 10 46 00 00 
22:20:15:582 Rx 0 00000154 s 8 04 17 14 00 00 00 00 00 
22:20:15:582 Rx 0 00000106 s 8 00 20 00 00 FF FF 00 25 
22:20:15:582 Rx 0 00000154 s 8 04 17 14 00 00 00 00 00 
22:20:15:582 Rx 0 00000116 s 6 00 90 F4 11 99 45 
22:20:15:582 Rx 0 00000102 s 6 20 96 DA FF CE FF 
22:20:15:592 Rx 0 0000025A s 8 00 00 00 00 00 00 00 00 
22:20:15:592 Rx 0 0000023A s 8 00 38 00 12 00 00 00 00 
22:20:15:592 Rx 0 0000021A s 8 FE 36 12 FE 69 05 07 AD 
22:20:15:592 Rx 0 0000022A s 8 67 01 5E 1D 00 00 00 00 
22:20:15:592 Rx 0 00000210 s 7 00 00 E3 1D 1F 86 FF 
22:20:15:592 Rx 0 0000029A s 8 01 36 FE 00 00 00 00 00 
22:20:15:592 Rx 0 000002BC s 8 3F 40 41 78 7E 64 00 00 
22:20:15:592 Rx 0 00000228 s 4 40 C0 F0 CD 
22:20:15:592 Rx 0 0000028C s 8 00 00 00 00 00 00 F0 00 
22:20:15:592 Rx 0 000002AC s 8 12 00 28 90 00 00 D6 CE 
22:20:15:592 Rx 0 00000154 s 8 04 17 14 00 00 00 00 00 
22:20:15:592 Rx 0 00000106 s 8 00 40 00 00 FF FF 00 45 
22:20:15:592 Rx 0 000002CC s 8 AB 7D 00 00 00 00 00 00 
22:20:15:592 Rx 0 00000116 s 6 00 90 F4 11 9A 46 
22:20:15:592 Rx 0 000002CC s 8 AB 7D 00 00 00 00 00 00 
22:20:15:592 Rx 0 00000102 s 6 20 96 D0 FF D2 FF 
22:20:15:592 Rx 0 000003A8 s 8 30 30 31 00 03 00 00 00 
22:20:15:592 Rx 0 0000048C s 1 00 
22:20:15:592 Rx 0 00000258 s 8 2F C8 36 D8 46 05 00 8F 
22:20:15:602 Rx 0 0000020A s 8 00 01 01 82 61 40 11 11 
22:20:15:602 Rx 0 0000079C s 8 08 00 00 00 08 00 00 00 
22:20:15:602 Rx 0 000006F2 s 8 06 4E B3 D2 DC 34 33 CD 
22:20:15:602 Rx 0 00000202 s 8 FD 5E 45 9D C4 09 1E 2D 
22:20:15:602 Rx 0 000003A2 s 8 FF 0F FF 0F 00 00 00 32 
22:20:15:602 Rx 0 00000212 s 5 D8 00 12 71 00 
22:20:15:602 Rx 0 0000000E s 8 20 6A 3F FF 08 FF F0 5C 
22:20:15:602 Rx 0 00000222 s 7 00 00 12 96 00 10 70 
22:20:15:602 Rx 0 000002A2 s 7 00 00 12 96 00 10 70 
22:20:15:602 Rx 0 00000232 s 4 07 24 68 82 
22:20:15:602 Rx 0 00000402 s 2 10 00 
22:20:15:602 Rx 0 00000108 s 4 00 00 0D 23 
22:20:15:602 Rx 0 00000288 s 8 00 00 00 00 00 1B 00 00 
22:20:15:602 Rx 0 00000108 s 4 00 00 0D 23 
22:20:15:602 Rx 0 00000168 s 8 CF 0C 1C 7F 00 00 D0 AC 
22:20:15:602 Rx 0 000001F8 s 8 01 EF F0 96 D3 D7 00 00 
22:20:15:602 Rx 0 000002A8 s 8 00 00 00 00 00 00 00 1B 
22:20:15:602 Rx 0 00000228 s 4 40 C0 00 B2 
22:20:15:602 Rx 0 0000029C s 8 00 08 00 00 87 01 00 14 
22:20:15:602 Rx 0 000002DC s 8 00 00 00 00 00 00 00 00 
22:20:15:602 Rx 0 00000154 s 8 04 17 14 00 00 00 00 00 
22:20:15:602 Rx 0 00000106 s 8 00 60 00 00 FF FF 00 65 
22:20:15:602 Rx 0 00000154 s 8 04 17 14 00 00 00 00 00 
22:20:15:602 Rx 0 00000116 s 6 00 90 F4 11 9B 47 
22:20:15:602 Rx 0 00000102 s 6 14 96 CF FF B1 FF 
22:20:15:602 Rx 0 0000026A s 3 FA 01 00 
22:20:15:612 Rx 0 0000000E s 8 20 6A 3F FF 08 FF 00 23 
22:20:15:612 Rx 0 00000228 s 4 40 C0 10 7F 
22:20:15:612 Rx 0 00000154 s 8 04 17 14 00 00 00 00 00 
22:20:15:612 Rx 0 00000126 s 7 02 03 00 00 00 48 09 
22:20:15:612 Rx 0 00000116 s 6 00 90 F4 11 9C 48 
22:20:15:612 Rx 0 00000126 s 7 02 03 00 00 00 48 09 
22:20:15:612 Rx 0 00000102 s 6 15 96 D2 FF 96 FF 
22:20:15:622 Rx 0 0000000E s 8 20 6A 3F FF 08 FF 10 EE 
22:20:15:622 Rx 0 00000288 s 8 00 00 00 00 00 1B 00 00 
22:20:15:622 Rx 0 00000108 s 4 00 00 0E 24 
22:20:15:622 Rx 0 00000168 s 8 D5 0C 1C 7F 00 00 E0 C2 
22:20:15:622 Rx 0 000001F8 s 8 01 EF F0 A6 D3 E7 00 00 
22:20:15:622 Rx 0 00000154 s 8 04 17 14 00 00 00 00 00 
22:20:15:622 Rx 0 00000228 s 4 40 C0 20 35 
22:20:15:622 Rx 0 00000154 s 8 04 17 14 00 00 00 00 00 
22:20:15:622 Rx 0 00000106 s 8 00 A0 00 00 FF FF 00 A5 
22:20:15:622 Rx 0 00000754 s 8 65 FD FF 00 00 00 00 00 
22:20:15:622 Rx 0 00000116 s 6 00 90 F4 11 9D 49 
22:20:15:622 Rx 0 00000102 s 6 21 96 D7 FF 98 FF 
22:20:15:622 Rx 0 00000754 s 8 67 00 95 00 00 00 00 00 
22:20:15:622 Rx 0 00000368 s 8 00 5A 1F 00 00 08 00 FF 
22:20:15:632 Rx 0 00000754 s 8 0A 00 00 00 00 00 00 00 
22:20:15:632 Rx 0 00000754 s 8 64 00 00 00 00 00 00 00 
22:20:15:632 Rx 0 0000023C s 8 3F 40 41 78 7E 64 00 00 
22:20:15:632 Rx 0 0000000E s 8 20 6A 3F FF 08 FF 20 A4 
22:20:15:632 Rx 0 000005D8 s 4 F9 A7 75 00 
22:20:15:632 Rx 0 00000268 s 8 55 00 1D 02 BD 07 36 00 
22:20:15:632 Rx 0 000003B8 s 2 1A 23 
22:20:15:632 Rx 0 0000020C s 8 00 00 00 00 00 00 F0 00 
22:20:15:632 Rx 0 0000022C s 8 00 00 0D 8F 00 00 D6 CE 
22:20:15:632 Rx 0 00000248 s 7 30 30 1D 8C 01 15 00 
22:20:15:632 Rx 0 00000228 s 4 40 C0 30 F8 
22:20:15:632 Rx 0 00000248 s 7 30 30 1D 8C 01 15 00 
22:20:15:632 Rx 0 0000024C s 8 AB 7D 00 00 00 00 00 00 
22:20:15:632 Rx 0 0000040C s 1 00 
22:20:15:632 Rx 0 00000154 s 8 04 17 14 00 00 00 00 00 
22:20:15:632 Rx 0 0000071C s 8 06 00 00 00 EB FF 00 40 
22:20:15:632 Rx 0 00000106 s 8 00 C0 00 00 FF FF 00 C5 
22:20:15:632 Rx 0 00000116 s 6 00 90 F4 11 9E 4A 
22:20:15:632 Rx 0 00000102 s 6 14 96 DF FF 96 FF 
22:20:15:642 Rx 0 0000000E s 8 20 6A 3F FF 08 FF 30 69 
22:20:15:642 Rx 0 00000228 s 4 40 C0 40 A1 
22:20:15:642 Rx 0 0000040E s 1 00 
22:20:15:642 Rx 0 00000288 s 8 00 00 00 00 00 1B 00 00 
22:20:15:642 Rx 0 00000108 s 4 00 00 0F 25 
22:20:15:642 Rx 0 00000168 s 8 DC 0C 1C 7F 00 00 F0 D9 
22:20:15:642 Rx 0 000001F8 s 8 01 EF F0 B6 D3 F7 00 00 
22:20:15:642 Rx 0 000002A8 s 8 00 00 00 00 00 00 00 1B 
22:20:15:642 Rx 0 00000106 s 8 00 E0 00 00 FF F1 00 FE 
22:20:15:642 Rx 0 00000106 s 8 00 E0 00 00 FF FF 00 E5 
22:20:15:642 Rx 0 00000116 s 6 00 90 F4 11 9F 4B 
22:20:15:642 Rx 0 000002C8 s 8 6E 80 03 7B 00 00 C0 F6 
22:20:15:642 Rx 0 00000102 s 6 20 96 E0 FF B0 FF 
22:20:15:652 Rx 0 0000000E s 8 20 6A 3F FF 08 FF 40 30 
22:20:15:652 Rx 0 000003D8 s 3 86 06 00 
22:20:15:652 Rx 0 00000408 s 1 E0 
22:20:15:652 Rx 0 00000106 s 8 00 00 00 00 FF F1 00 D0 
22:20:15:652 Rx 0 00000106 s 8 00 00 00 00 FF FF 00 05 
22:20:15:652 Rx 0 00000116 s 6 00 90 F4 11 90 3C 
22:20:15:652 Rx 0 00000102 s 6 1F 96 DC FF CD FF 
22:20:15:662 Rx 0 0000000E s 8 20 6A 3F FF 08 FF 50 FD 
22:20:15:662 Rx 0 00000108 s 4 00 00 00 16 
22:20:15:662 Rx 0 00000278 s 8 12 00 40 02 04 00 C0 1E 
22:20:15:662 Rx 0 00000288 s 8 00 00 00 00 00 1B 00 00 
22:20:15:662 Rx 0 000002A8 s 8 00 00 00 00 00 00 00 1B 
22:20:15:662 Rx 0 000001F8 s 8 01 EF F0 C6 D3 07 00 00 
22:20:15:662 Rx 0 00000102 s 6 1F 96 D6 FF D4 FF 
22:20:15:662 Rx 0 00000228 s 4 40 C0 60 26 
22:20:15:662 Rx 0 00000558 s 8 32 39 66 33 31 64 33 00 
22:20:15:662 Rx 0 00000154 s 8 04 17 14 00 00 00 00 00 
22:20:15:662 Rx 0 00000106 s 8 00 20 00 00 FF FF 00 25 
22:20:15:662 Rx 0 00000256 s 8 81 02 00 30 00 C0 00 CB 
22:20:15:662 Rx 0 00000116 s 6 00 90 F4 11 91 3D 
22:20:15:662 Rx 0 00000102 s 6 1F 96 D6 FF D4 FF 
22:20:15:662 Rx 0 00000266 s 8 85 04 00 00 00 70 0A 4B 
22:20:15:672 Rx 0 00000238 s 8 00 FF 00 00 00 00 01 1E 
22:20:15:672 Rx 0 0000021C s 8 00 08 00 00 86 01 00 14 
22:20:15:672 Rx 0 00000228 s 4 40 C0 70 EB 
22:20:15:672 Rx 0 0000025C s 8 01 02 26 9A 5D 00 72 04 
22:20:15:672 Rx 0 00000154 s 8 04 17 14 00 00 00 00 00 
22:20:15:672 Rx 0 00000106 s 8 00 40 00 00 FF FF 00 45 
22:20:15:672 Rx 0 00000116 s 6 00 90 F4 11 92 3E 
22:20:15:672 Rx 0 00000238 s 8 00 FF 00 00 00 00 01 1E 
22:20:15:672 Rx 0 00000102 s 6 07 96 CF FF CF FF 
22:20:15:682 Rx 0 000001F8 s 8 01 EF F0 D6 D3 17 00 00 
22:20:15:682 Rx 0 0000028A s 8 0A 00 FF 1F 00 01 00 00 
22:20:15:682 Rx 0 0000037A s 8 87 86 90 80 D7 E4 00 28 
22:20:15:682 Rx 0 0000066A s 8 00 00 00 00 00 00 00 00 
22:20:15:682 Rx 0 00000288 s 8 00 00 00 00 00 1B 00 00 
22:20:15:682 Rx 0 00000108 s 4 00 00 01 17 
22:20:15:682 Rx 0 00000168 s 8 EC 0C 1C 7F 00 00 10 09 
22:20:15:682 Rx 0 00000228 s 4 40 C0 80 94 
22:20:15:682 Rx 0 000002A8 s 8 00 00 00 00 00 00 00 1B 
22:20:15:682 Rx 0 00000228 s 4 40 C0 80 94 
22:20:15:682 Rx 0 00000125 s 4 FF 02 28 01 
22:20:15:682 Rx 0 00000138 s 5 00 11 47 00 00 
22:20:15:682 Rx 0 00000748 s 8 00 00 00 00 00 00 00 00 
22:20:15:682 Rx 0 00000154 s 8 04 17 14 00 00 00 00 00 
22:20:15:682 Rx 0 00000106 s 8 00 60 00 00 FF FF 00 65 
22:20:15:682 Rx 0 00000116 s 6 00 90 F4 11 93 3F 
22:20:15:682 Rx 0 00000102 s 6 14 96 D1 FF 91 FF 
22:20:15:692 Rx 0 0000025A s 8 00 00 00 00 00 00 00 00 
22:20:15:692 Rx 0 00000228 s 4 40 C0 90 59 
22:20:15:692 Rx 0 0000021A s 8 FE 36 12 FE 69 05 07 AD 
22:20:15:692 Rx 0 0000022A s 8 67 01 5E 1D 00 00 00 00 
22:20:15:692 Rx 0 0000027A s 7 30 30 0D 8C 09 15 00 
22:20:15:692 Rx 0 0000029A s 8 01 36 FE 00 00 00 00 00 
22:20:15:692 Rx 0 00000210 s 7 00 00 E3 1D 1E 86 FF 
22:20:15:692 Rx 0 0000000E s 8 20 6A 3F FF 08 FF 80 05 
22:20:15:692 Rx 0 000002AC s 8 0D 00 1F 90 00 F1 00 58 
22:20:15:692 Rx 0 000003A8 s 8 30 30 31 00 03 00 00 00 
22:20:15:692 Rx 0 00000154 s 8 04 17 14 00 00 00 00 00 
22:20:15:692 Rx 0 00000106 s 8 00 80 00 00 FF FF 00 85 
22:20:15:692 Rx 0 000002BC s 8 3F 40 41 78 7E 64 00 00 
22:20:15:692 Rx 0 00000116 s 6 00 90 F4 11 94 40 
22:20:15:692 Rx 0 000002CC s 8 AB 7D 00 00 00 00 00 00 
22:20:15:692 Rx 0 00000102 s 6 16 96 D5 FF 98 FF 
22:20:15:692 Rx 0 00000258 s 8 2F C8 36 D8 46 05 00 8F 
22:20:15:692 Rx 0 0000048C s 1 00 
22:20:15:692 Rx 0 00000258 s 8 2F C8 36 D8 46 05 00 8F 
22:20:15:702 Rx 0 0000020A s 8 00 01 01 82 71 40 11 11 
22:20:15:702 Rx 0 000005AC s 8 00 00 00 00 00 00 1A 00 
22:20:15:702 Rx 0 0000079C s 8 09 00 08 00 00 00 08 00 
22:20:15:702 Rx 0 00000202 s 8 FD 5E 45 9D C4 09 1E 2D 
22:20:15:702 Rx 0 000006F2 s 8 07 4E B3 D3 CC 34 33 CD 
22:20:15:702 Rx 0 00000212 s 5 D8 00 12 71 00 
22:20:15:702 Rx 0 000002A2 s 7 00 00 13 96 00 10 70 
22:20:15:702 Rx 0 00000222 s 7 00 00 13 96 00 10 70 
22:20:15:702 Rx 0 000001F8 s 8 01 EF F0 E6 D3 27 00 00 
22:20:15:702 Rx 0 00000402 s 2 10 00 
22:20:15:702 Rx 0 000003A2 s 8 FF 0F FF 0F 00 00 00 32 
22:20:15:702 Rx 0 00000288 s 8 00 00 00 00 00 1B 00 00 
22:20:15:702 Rx 0 00000108 s 4 00 00 02 18 
22:20:15:702 Rx 0 00000168 s 8 F3 0C 1C 7F 00 00 20 20 
22:20:15:702 Rx 0 00000228 s 4 40 C0 A0 13 
22:20:15:702 Rx 0 000002A8 s 8 00 00 00 00 00 00 00 1B 
22:20:15:702 Rx 0 00000228 s 4 40 C0 A0 13 
22:20:15:702 Rx 0 0000029C s 8 00 08 00 00 87 01 00 14 
22:20:15:702 Rx 0 000002DC s 8 00 00 00 00 00 00 00 00 
22:20:15:702 Rx 0 00000358 s 8 04 07 50 01 F0 00 00 30 
22:20:15:702 Rx 0 00000154 s 8 04 17 14 00 00 00 00 00 
22:20:15:702 Rx 0 00000106 s 8 00 A0 00 00 FF FF 00 A5 
22:20:15:702 Rx 0 00000116 s 6 00 90 F4 11 95 41 
22:20:15:702 Rx 0 00000102 s 6 07 96 DA FF 97 FF 
22:20:15:702 Rx 0 0000026A s 3 FA 01 00 
22:20:15:712 Rx 0 0000000E s 8 20 6A 3F FF 08 FF A0 82 
22:20:15:712 Rx 0 00000228 s 4 40 C0 B0 DE 
22:20:15:712 Rx 0 00000154 s 8 04 17 14 00 00 00 00 00 
22:20:15:712 Rx 0 00000106 s 8 00 C0 00 00 FF FF 00 C5 
22:20:15:712 Rx 0 00000116 s 6 00 90 F4 11 96 42 
22:20:15:712 Rx 0 00000126 s 7 02 03 00 00 00 48 09 
22:20:15:712 Rx 0 00000102 s 6 12 96 E1 FF 97 FF 
22:20:15:722 Rx 0 00000108 s 4 00 00 03 19 
22:20:15:722 Rx 0 00000288 s 8 00 00 00 00 00 1B 00 00 
22:20:15:722 Rx 0 00000154 s 8 04 17 14 00 00 F1 00 38 
22:20:15:722 Rx 0 000001F8 s 8 01 EF F0 F6 D3 37 00 00 
22:20:15:722 Rx 0 000002A8 s 8 00 00 00 00 00 00 00 1B 
22:20:15:722 Rx 0 00000368 s 8 00 5A 1F 00 00 08 00 FF 
22:20:15:722 Rx 0 000003E8 s 8 89 89 89 00 00 00 00 00 
22:20:15:722 Rx 0 00000228 s 4 40 C0 C0 87 
22:20:15:722 Rx 0 00000106 s 8 00 E0 00 00 FF FF 00 E5 
22:20:15:722 Rx 0 00000754 s 8 65 FD FF 00 00 00 00 00 
22:20:15:722 Rx 0 00000106 s 8 00 E0 00 00 FF FF 00 E5 
22:20:15:722 Rx 0 0000065D s 8 0D 00 00 00 96 31 35 61 
22:20:15:722 Rx 0 00000116 s 6 00 90 F4 11 97 43 
22:20:15:722 Rx 0 00000102 s 6 1E 96 E0 FF D1 FF 
22:20:15:722 Rx 0 00000304 s 8 00 00 00 00 00 00 00 00 
22:20:15:722 Rx 0 00000314 s 8 00 00 00 00 00 00 00 00 
22:20:15:732 Rx 0 0000067D s 8 01 00 00 00 FE 00 00 0A 
22:20:15:732 Rx 0 00000754 s 8 66 00 00 00 00 00 00 00 
22:20:15:732 Rx 0 00000754 s 8 67 00 95 00 00 00 00 00 
22:20:15:732 Rx 0 0000000E s 8 20 6A 3F FF 08 FF C0 16 
22:20:15:732 Rx 0 00000754 s 8 64 00 00 00 00 00 00 00 
22:20:15:732 Rx 0 00000754 s 8 0A 00 00 00 00 00 00 00 
22:20:15:732 Rx 0 00000754 s 8 0D 45 60 00 95 E9 C9 01 
22:20:15:732 Rx 0 00000754 s 8 0E 4A 3C 00 00 00 00 00 
22:20:15:732 Rx 0 00000754 s 8 0F E4 EA 00 26 47 11 01 
22:20:15:732 Rx 0 00000754 s 8 10 DB 48 00 36 EF 2E 00 
22:20:15:732 Rx 0 00000754 s 8 11 F5 8D 00 8A E4 01 00 
22:20:15:732 Rx 0 00000268 s 8 55 00 1D 02 BD 07 36 00 
22:20:15:732 Rx 0 00000754 s 8 11 F5 8D 00 8A E4 01 00 
22:20:15:732 Rx 0 00000754 s 8 12 9E 0D 00 BD 06 23 06 
22:20:15:732 Rx 0 00000754 s 8 13 00 00 FF FF 00 00 00 
22:20:15:732 Rx 0 00000754 s 8 14 00 02 3F 01 00 00 00 
22:20:15:732 Rx 0 00000754 s 8 15 00 01 97 00 00 00 00 
22:20:15:732 Rx 0 00000754 s 8 16 00 01 57 00 00 00 00 
22:20:15:732 Rx 0 0000020C s 8 00 00 00 00 00 00 F0 00 
22:20:15:732 Rx 0 0000023C s 8 3F 40 41 78 7E 64 00 00 
22:20:15:732 Rx 0 00000228 s 4 40 C0 D0 4A 
22:20:15:732 Rx 0 0000023C s 8 3F 40 41 78 7E 64 00 00 
22:20:15:732 Rx 0 0000024C s 8 AB 7D 00 00 00 00 00 00 
22:20:15:732 Rx 0 0000040C s 1 00 
22:20:15:732 Rx 0 0000071C s 8 07 00 00 00 00 03 DF 00 
22:20:15:732 Rx 0 00000728 s 8 00 00 00 00 00 00 00 00 
22:20:15:732 Rx 0 00000106 s 8 00 00 00 00 FF FF 00 05 
22:20:15:732 Rx 0 00000154 s 8 04 17 14 00 00 00 00 00 
22:20:15:732 Rx 0 00000248 s 7 30 30 1D 8C 01 15 00 
22:20:15:732 Rx 0 00000248 s 7 30 30 1D 8C 01 15 00 
22:20:15:732 Rx 0 00000754 s 8 17 00 01 51 00 00 00 00 
22:20:15:742 Rx 0 0000000E s 8 20 6A 3F FF 08 FF D0 DB 
22:20:15:742 Rx 0 0000020E s 8 88 10 00 13 BB 00 06 00 
22:20:15:742 Rx 0 0000040E s 1 00 
22:20:15:742 Rx 0 00000288 s 8 00 00 00 00 00 1B 00 00 
22:20:15:742 Rx 0 00000108 s 4 00 00 04 1A 
22:20:15:742 Rx 0 00000168 s 8 02 0D 1C 7F 00 00 40 50 
22:20:15:742 Rx 0 000001F8 s 8 01 EF F0 06 D3 47 00 00 
22:20:15:742 Rx 0 000002A8 s 8 00 00 00 00 00 00 00 1B 
22:20:15:742 Rx 0 00000228 s 4 40 C0 E0 00 
22:20:15:742 Rx 0 00000154 s 8 04 17 14 00 00 00 00 00 
22:20:15:742 Rx 0 00000106 s 8 00 20 00 00 FF FF 00 25 
22:20:15:742 Rx 0 00000116 s 6 00 90 F4 11 99 45 
22:20:15:742 Rx 0 000002C8 s 8 6E 80 03 7B 00 00 D0 06 
22:20:15:742 Rx 0 00000738 s 8 00 00 00 00 00 00 00 00 
22:20:15:742 Rx 0 00000102 s 6 07 96 D0 FF CD FF 
22:20:15:752 Rx 0 0000000E s 8 20 6A 3F FF 08 FF E0 91 
22:20:15:752 Rx 0 00000228 s 4 40 C0 F0 CD 
22:20:15:752 Rx 0 00000154 s 8 04 17 14 00 00 00 00 00 
22:20:15:752 Rx 0 00000106 s 8 00 40 00 00 FF FF 00 45 
22:20:15:752 Rx 0 00000116 s 6 00 90 F4 11 9A 46 
22:20:15:752 Rx 0 00000102 s 6 12 96 D0 FF A7 FF 
22:20:15:752 Rx 0 000003D8 s 3 86 06 00 
22:20:15:752 Rx 0 00000408 s 1 F0 
22:20:15:762 Rx 0 00000278 s 8 12 00 40 02 04 00 D0 2E 
22:20:15:762 Rx 0 0000000E s 8 20 6A 3F FF 08 FF F0 5C 
22:20:15:762 Rx 0 00000278 s 8 12 00 40 02 04 00 D0 2E 
22:20:15:762 Rx 0 00000288 s 8 00 00 00 00 00 1B 00 00 
22:20:15:762 Rx 0 00000108 s 4 00 00 05 1B 
22:20:15:762 Rx 0 00000168 s 8 09 0D 1C 7F 00 00 50 67 
22:20:15:762 Rx 0 000001F8 s 8 01 EF F0 15 D2 57 00 00 
22:20:15:762 Rx 0 000002A8 s 8 00 00 00 00 00 00 00 1B 
22:20:15:762 Rx 0 00000228 s 4 40 C0 00 B2 
22:20:15:762 Rx 0 00000106 s 8 00 60 00 00 FF FF 00 65 
22:20:15:762 Rx 0 00000154 s 8 04 17 14 00 00 00 00 00 
22:20:15:762 Rx 0 00000106 s 8 00 60 00 00 FF FF 00 65 
22:20:15:762 Rx 0 00000256 s 8 81 02 00 30 00 D0 00 DB 
22:20:15:762 Rx 0 00000116 s 6 00 90 F4 11 9B 47 
22:20:15:762 Rx 0 00000266 s 8 85 04 00 00 00 70 0A 4B 
22:20:15:762 Rx 0 00000102 s 6 05 96 D3 FF 99 FF 
22:20:15:772 Rx 0 0000000E s 8 20 6A 3F FF 08 FF 00 23 
22:20:15:772 Rx 0 00000228 s 4 40 C0 10 7F 
22:20:15:772 Rx 0 000007D8 s 8 00 00 00 00 00 00 00 00 
22:20:15:772 Rx 0 0000025C s 8 01 02 26 9A 41 00 79 04 
22:20:15:772 Rx 0 000007D8 s 8 00 00 00 00 00 00 00 00 
22:20:15:772 Rx 0 00000238 s 8 00 FF 00 00 00 00 11 D3 
22:20:15:772 Rx 0 00000106 s 8 00 80 00 00 FF FF 00 85 
22:20:15:772 Rx 0 00000154 s 8 04 17 14 00 00 00 00 00 
22:20:15:772 Rx 0 00000116 s 6 00 90 F4 11 9C 48 
22:20:15:772 Rx 0 00000102 s 6 07 96 D7 FF 93 FF 
22:20:15:782 Rx 0 00000378 s 8 80 60 82 00 00 00 00 00 
22:20:15:782 Rx 0 0000039A s 8 34 32 30 28 19 19 14 00 
22:20:15:782 Rx 0 0000028A s 8 0A 00 FF 1F 00 01 00 00 
22:20:15:782 Rx 0 00000125 s 4 FF 02 29 02 
22:20:15:782 Rx 0 00000288 s 8 00 00 00 00 00 1B 00 00 
22:20:15:782 Rx 0 00000108 s 4 00 00 06 1C 
22:20:15:782 Rx 0 00000168 s 8 10 0D 1C 7F 00 00 60 7E 
22:20:15:782 Rx 0 000001F8 s 8 01 EF F0 26 D3 67 00 00 
22:20:15:782 Rx 0 000002A8 s 8 00 00 00 00 00 00 00 1B 
22:20:15:782 Rx 0 00000228 s 4 40 C0 20 35 
22:20:15:782 Rx 0 00000154 s 8 04 17 14 00 00 F1 00 06 
22:20:15:782 Rx 0 00000154 s 8 04 17 14 00 00 00 00 00 
22:20:15:782 Rx 0 00000106 s 8 00 A0 00 00 FF FF 00 A5 
22:20:15:782 Rx 0 00000116 s 6 00 90 F4 11 9D 49 
22:20:15:782 Rx 0 00000102 s 6 13 96 E0 FF 97 FF 
22:20:15:792 Rx 0 0000025A s 8 00 00 00 00 00 00 00 00 
22:20:15:792 Rx 0 0000023A s 8 00 38 00 12 00 00 00 00 
22:20:15:792 Rx 0 0000021A s 8 FE 36 12 FE 69 05 07 AD 
22:20:15:792 Rx 0 0000029A s 8 01 36 FE 00 00 00 00 00 
22:20:15:792 Rx 0 0000027A s 7 30 30 0D 8C 09 15 00 
22:20:15:792 Rx 0 000002A2 s 7 00 00 11 96 00 10 70 
22:20:15:792 Rx 0 00000210 s 7 00 00 E3 1D 1E 86 FF 
22:20:15:792 Rx 0 0000000E s 8 20 6A 3F FF 08 FF 20 A4 
22:20:15:792 Rx 0 00000202 s 8 FD 5E 45 9D C4 09 1E 2D 
22:20:15:792 Rx 0 00000212 s 5 D8 00 12 71 00 
22:20:15:792 Rx 0 000006F2 s 8 08 4E B3 D3 DC 34 43 CD 
22:20:15:792 Rx 0 00000222 s 7 00 00 11 96 00 10 70 
22:20:15:792 Rx 0 00000402 s 2 10 00 
22:20:15:792 Rx 0 00000232 s 4 07 24 68 82 
22:20:15:792 Rx 0 00000402 s 2 10 00 
22:20:15:792 Rx 0 000003A2 s 8 FF 0F FF 0F 00 00 00 32 
22:20:15:792 Rx 0 00000228 s 4 40 C0 30 F8 
22:20:15:792 Rx 0 0000028C s 8 00 00 00 00 00 00 F0 00 
22:20:15:792 Rx 0 000002AC s 8 10 00 20 90 00 00 D6 CE 
22:20:15:792 Rx 0 000002BC s 8 3F 40 41 78 7E 64 00 00 
22:20:15:792 Rx 0 00000154 s 8 04 17 14 00 00 00 00 00 
22:20:15:792 Rx 0 00000102 s 6 20 96 E0 FF BB FF 
22:20:15:792 Rx 0 000002CC s 8 AB 7D 00 00 00 00 00 00 
22:20:15:792 Rx 0 00000102 s 6 20 96 E0 FF BB FF 
22:20:15:792 Rx 0 00000116 s 6 00 90 F4 11 9E 4A 
22:20:15:792 Rx 0 0000048C s 1 00 
22:20:15:792 Rx 0 0000079C s 8 0A 00 00 00 00 00 00 00 
22:20:15:802 Rx 0 0000020A s 8 00 01 01 82 81 40 11 11 
22:20:15:802 Rx 0 000003A8 s 8 30 30 31 00 03 00 00 00 
22:20:15:802 Rx 0 00000258 s 8 2F C8 36 D8 46 05 00 8F 
22:20:15:802 Rx 0 00000108 s 4 00 00 07 1D 
22:20:15:802 Rx 0 00000288 s 8 00 00 00 00 00 1B 00 00 
22:20:15:802 Rx 0 000002DC s 8 00 00 00 00 00 F1 00 DE 
22:20:15:802 Rx 0 000001F8 s 8 01 EF F0 36 D3 77 00 00 
22:20:15:802 Rx 0 000002A8 s 8 00 00 00 00 00 00 00 1B 
22:20:15:802 Rx 0 00000358 s 8 04 07 50 01 F0 00 00 30 
22:20:15:802 Rx 0 00000228 s 4 40 C0 40 A1 
22:20:15:802 Rx 0 0000029C s 8 00 08 00 00 87 01 00 14 
22:20:15:802 Rx 0 00000106 s 8 00 E0 00 00 FF FF 00 E5 
22:20:15:802 Rx 0 00000154 s 8 04 17 14 00 00 00 00 00 
22:20:15:802 Rx 0 00000106 s 8 00 E0 00 00 FF FF 00 E5 
22:20:15:802 Rx 0 00000116 s 6 00 90 F4 11 9F 4B 
22:20:15:802 Rx 0 00000102 s 6 13 96 DC FF D2 FF 
22:20:15:812 Rx 0 0000026A s 3 FA 01 00 
22:20:15:812 Rx 0 0000000E s 8 20 6A 3F FF 08 FF 40 30 
22:20:15:812 Rx 0 00000228 s 4 40 C0 50 6C 
22:20:15:812 Rx 0 00000154 s 8 04 17 14 00 00 00 00 00 
22:20:15:812 Rx 0 00000126 s 7 02 03 00 00 00 48 09 
22:20:15:812 Rx 0 00000116 s 6 00 90 F4 11 90 3C 
22:20:15:812 Rx 0 00000126 s 7 02 03 00 00 00 48 09 
22:20:15:812 Rx 0 00000102 s 6 20 96 D5 FF CB FF 
22:20:15:822 Rx 0 0000000E s 8 20 6A 3F FF 08 FF 50 FD 
22:20:15:822 Rx 0 00000288 s 8 00 00 00 00 00 1B 00 00 
22:20:15:822 Rx 0 00000108 s 4 00 00 08 1E 
22:20:15:822 Rx 0 00000168 s 8 1D 0D 1C 7F 00 00 80 AB 
22:20:15:822 Rx 0 000001F8 s 8 01 EF F0 46 D3 87 00 00 
22:20:15:822 Rx 0 00000154 s 8 04 17 14 00 00 00 00 00 
22:20:15:822 Rx 0 00000228 s 4 40 C0 60 26 
22:20:15:822 Rx 0 00000154 s 8 04 17 14 00 00 00 00 00 
22:20:15:822 Rx 0 00000754 s 8 65 FD FF 00 00 00 00 00 
22:20:15:822 Rx 0 00000106 s 8 00 20 00 00 FF FF 00 25 
22:20:15:822 Rx 0 00000116 s 6 00 90 F4 11 91 3D 
22:20:15:822 Rx 0 00000102 s 6 21 96 CE FF CF FF 
22:20:15:822 Rx 0 00000368 s 8 00 5A 1F 00 00 08 00 FF 
22:20:15:832 Rx 0 00000268 s 8 55 00 1D 02 BD 07 36 00 
22:20:15:832 Rx 0 0000022C s 8 00 00 1B 8F 00 00 D6 CE 
22:20:15:832 Rx 0 0000020C s 8 00 00 00 00 00 00 F0 00 
22:20:15:832 Rx 0 00000154 s 8 04 17 14 00 00 00 00 00 
22:20:15:832 Rx 0 00000228 s 4 40 C0 70 EB 
22:20:15:832 Rx 0 0000023C s 8 3F 40 41 78 7E 64 00 00 
22:20:15:832 Rx 0 00000248 s 7 30 30 1D 8C 01 15 00 
22:20:15:832 Rx 0 0000024C s 8 AB 7D 00 00 00 00 00 00 
22:20:15:832 Rx 0 0000040C s 1 00 
22:20:15:832 Rx 0 0000071C s 8 08 00 00 00 00 00 00 00 
22:20:15:832 Rx 0 00000754 s 8 67 00 95 00 00 00 00 00 
22:20:15:832 Rx 0 00000106 s 8 00 40 00 00 FF FF 00 45 
22:20:15:832 Rx 0 00000754 s 8 67 00 95 00 00 00 00 00 
22:20:15:832 Rx 0 00000102 s 6 FA 95 D1 FF 98 FF 
22:20:15:832 Rx 0 00000116 s 6 00 90 F4 11 92 3E 
22:20:15:832 Rx 0 00000754 s 8 66 00 00 00 00 00 00 00 
22:20:15:842 Rx 0 00000754 s 8 64 00 00 00 00 00 00 00 
22:20:15:842 Rx 0 00000754 s 8 0A 00 00 00 00 00 00 00 
22:20:15:842 Rx 0 0000000E s 8 20 6A 3F FF 08 FF 70 7A 
22:20:15:842 Rx 0 0000040E s 1 00 
22:20:15:842 Rx 0 0000030E s 6 00 00 00 00 00 00 
22:20:15:842 Rx 0 00000228 s 4 40 C0 F1 00 
22:20:15:842 Rx 0 00000288 s 8 00 00 00 00 00 1B 00 00 
22:20:15:842 Rx 0 00000108 s 4 00 00 09 1F 
22:20:15:842 Rx 0 00000168 s 8 23 0D 1C 7F 00 00 90 C1 
22:20:15:842 Rx 0 000001F8 s 8 01 EF F0 56 D3 97 00 00 
22:20:15:842 Rx 0 000002A8 s 8 00 00 00 00 00 00 00 1B 
22:20:15:842 Rx 0 00000106 s 8 00 60 00 00 FF F1 00 A6 
22:20:15:842 Rx 0 00000106 s 8 00 60 00 00 FF FF 00 65 
22:20:15:842 Rx 0 00000116 s 6 00 90 F4 11 93 3F 
22:20:15:842 Rx 0 000002C8 s 8 6E 80 03 7B 00 00 E0 16 
22:20:15:842 Rx 0 00000102 s 6 13 96 D6 FF 96 FF 
22:20:15:852 Rx 0 0000000E s 8 20 6A 3F FF 08 FF 80 05 
22:20:15:852 Rx 0 000003D8 s 3 86 06 00 
22:20:15:852 Rx 0 00000408 s 1 00 
22:20:15:852 Rx 0 00000106 s 8 00 80 00 00 FF F1 00 12 
22:20:15:852 Rx 0 00000106 s 8 00 80 00 00 FF FF 00 85 
22:20:15:852 Rx 0 00000116 s 6 00 90 F4 11 94 40 
22:20:15:852 Rx 0 00000102 s 6 13 96 DC FF 9D FF 
22:20:15:862 Rx 0 0000000E s 8 20 6A 3F FF 08 FF 90 C8 
22:20:15:862 Rx 0 00000108 s 4 00 00 0A 20 
22:20:15:862 Rx 0 00000278 s 8 12 00 40 02 04 00 E0 3E 
22:20:15:862 Rx 0 00000288 s 8 00 00 00 00 00 1B 00 00 
22:20:15:862 Rx 0 000002A8 s 8 00 00 00 00 00 00 00 1B 
22:20:15:862 Rx 0 000001F8 s 8 01 EF F0 65 D2 A7 00 00 
22:20:15:862 Rx 0 00000102 s 6 FC 95 E1 FF 99 FF 
22:20:15:862 Rx 0 00000228 s 4 40 C0 A0 13 
22:20:15:862 Rx 0 00000154 s 8 04 17 14 00 00 00 00 00 
22:20:15:862 Rx 0 00000106 s 8 00 A0 00 00 FF FF 00 A5 
22:20:15:862 Rx 0 00000116 s 6 00 90 F4 11 95 41 
22:20:15:862 Rx 0 00000256 s 8 81 02 00 30 00 E0 00 EB 
22:20:15:862 Rx 0 00000266 s 8 85 04 00 00 00 70 0A 4B 
22:20:15:862 Rx 0 00000102 s 6 FC 95 E1 FF 99 FF 
22:20:15:872 Rx 0 0000000E s 8 20 6A 3F FF 08 FF A0 82 
22:20:15:872 Rx 0 00000102 s 6 2E 96 DE FF D2 FF 
22:20:15:872 Rx 0 00000228 s 4 40 C0 B0 DE 
22:20:15:872 Rx 0 0000025C s 8 01 02 26 9A 24 00 7F 04 
22:20:15:872 Rx 0 00000238 s 8 00 FF 00 00 00 00 21 99 
22:20:15:872 Rx 0 00000154 s 8 04 17 14 00 00 00 00 00 
22:20:15:872 Rx 0 00000106 s 8 00 C0 00 00 FF FF 00 C5 
22:20:15:872 Rx 0 00000116 s 6 00 90 F4 11 96 42 
22:20:15:872 Rx 0 00000102 s 6 2E 96 DE FF D2 FF 
22:20:15:882 Rx 0 0000000E s 8 20 6A 3F FF 08 FF B0 4F 
22:20:15:882 Rx 0 00000125 s 4 FF 02 2A 03 
22:20:15:882 Rx 0 000003AA s 8 00 00 80 00 00 00 80 80 
22:20:15:882 Rx 0 00000288 s 8 00 00 00 00 00 1B 00 00 
22:20:15:882 Rx 0 00000108 s 4 00 00 0B 21 
22:20:15:882 Rx 0 00000168 s 8 2C 0D 1C 7F 00 00 B0 EA 
22:20:15:882 Rx 0 000001F8 s 8 01 EF F0 76 D3 B7 00 00 
22:20:15:882 Rx 0 000002A8 s 8 00 00 00 00 00 00 00 1B 
22:20:15:882 Rx 0 00000228 s 4 40 C0 C0 87 
22:20:15:882 Rx 0 00000138 s 5 00 13 49 00 00 
22:20:15:882 Rx 0 00000228 s 4 40 C0 C0 87 
22:20:15:882 Rx 0 00000154 s 8 04 17 14 00 00 00 00 00 
22:20:15:882 Rx 0 00000106 s 8 00 E0 00 00 FF FF 00 E5 
22:20:15:882 Rx 0 00000116 s 6 00 90 F4 11 97 43 
22:20:15:882 Rx 0 00000102 s 6 14 96 D7 FF D2 FF 
22:20:15:892 Rx 0 0000025A s 8 00 00 00 00 00 00 00 00 
22:20:15:892 Rx 0 0000023A s 8 00 38 00 12 00 00 00 00 
22:20:15:892 Rx 0 0000027A s 7 30 30 0D 8C 09 15 00 
22:20:15:892 Rx 0 0000022A s 8 67 01 5E 1D 00 00 00 00 
22:20:15:892 Rx 0 00000222 s 7 00 00 12 96 00 10 70 
22:20:15:892 Rx 0 0000029A s 8 01 36 FE 00 00 00 00 00 
22:20:15:892 Rx 0 00000210 s 7 00 00 E3 1D 1F 86 FF 
22:20:15:892 Rx 0 0000000E s 8 20 6A 3F FF 08 FF C0 16 
22:20:15:892 Rx 0 00000202 s 8 FD 5E 45 9D C4 09 1E 2D 
22:20:15:892 Rx 0 000006F2 s 8 09 4F B3 D3 DC 34 37 CD 
22:20:15:892 Rx 0 00000212 s 5 D8 00 12 71 00 
22:20:15:892 Rx 0 00000232 s 4 07 24 68 82 
22:20:15:892 Rx 0 000002A2 s 7 00 00 12 96 00 10 70 
22:20:15:892 Rx 0 00000232 s 4 07 24 68 82 
22:20:15:892 Rx 0 00000402 s 2 10 00 
22:20:15:892 Rx 0 000003A2 s 8 FF 0F FF 0F 00 00 00 32 
22:20:15:892 Rx 0 00000228 s 4 40 C0 D0 4A 
22:20:15:892 Rx 0 0000028C s 8 00 00 00 00 00 00 F0 00 
22:20:15:892 Rx 0 000002AC s 8 10 00 1C 90 00 00 D6 CE 
22:20:15:892 Rx 0 000002BC s 8 3F 40 41 78 7E 64 00 00 
22:20:15:892 Rx 0 000002CC s 8 AB 7D 00 00 00 00 00 00 
22:20:15:892 Rx 0 00000106 s 8 00 00 00 00 FF FF 00 05 
22:20:15:892 Rx 0 000002CC s 8 AB 7D 00 00 00 00 00 00 
22:20:15:892 Rx 0 00000116 s 6 00 90 F4 11 98 44 
22:20:15:892 Rx 0 00000102 s 6 13 96 D1 FF D0 FF 
22:20:15:892 Rx 0 0000048C s 1 00 
22:20:15:892 Rx 0 0000079C s 8 0B 00 00 00 00 00 00 00 
22:20:15:892 Rx 0 0000020A s 8 00 01 01 82 91 40 11 11 
22:20:15:902 Rx 0 000003A8 s 8 30 30 31 00 03 00 00 00 
22:20:15:902 Rx 0 00000288 s 8 00 00 00 00 00 1B 00 00 
22:20:15:902 Rx 0 0000000E s 8 20 6A 3F FF 08 FF D0 DB 
22:20:15:902 Rx 0 000002DC s 8 00 00 00 00 00 00 00 00 
22:20:15:902 Rx 0 00000108 s 4 00 00 0C 22 
22:20:15:902 Rx 0 00000168 s 8 2F 0D 1C 7F 00 00 C0 FD 
22:20:15:902 Rx 0 000001F8 s 8 01 EF F0 85 D2 C7 00 00 
22:20:15:902 Rx 0 000002A8 s 8 00 00 00 00 00 00 00 1B 
22:20:15:902 Rx 0 00000228 s 4 40 C0 E0 00 
22:20:15:902 Rx 0 0000029C s 8 00 08 00 00 87 01 00 14 
22:20:15:902 Rx 0 00000358 s 8 04 07 50 01 F0 00 00 30 
22:20:15:902 Rx 0 00000154 s 8 04 17 14 00 00 00 00 00 
22:20:15:902 Rx 0 00000358 s 8 04 07 50 01 F0 00 00 30 
22:20:15:902 Rx 0 00000106 s 8 00 20 00 00 FF FF 00 25 
22:20:15:902 Rx 0 00000116 s 6 00 90 F4 11 99 45 
22:20:15:902 Rx 0 00000102 s 6 07 96 D0 FF 99 FF 
22:20:15:902 Rx 0 0000026A s 3 FA 01 00 
22:20:15:912 Rx 0 0000000E s 8 20 6A 3F FF 08 FF E0 91 
22:20:15:912 Rx 0 00000228 s 4 40 C0 F0 CD 
22:20:15:912 Rx 0 00000116 s 6 00 90 F4 11 9A 46 
22:20:15:912 Rx 0 00000106 s 8 00 40 00 00 FF FF 00 45 
22:20:15:912 Rx 0 00000116 s 6 00 90 F4 11 9A 46 
22:20:15:912 Rx 0 00000126 s 7 02 03 00 00 00 48 09 
22:20:15:912 Rx 0 00000102 s 6 13 96 D2 FF 9C FF 
22:20:15:922 Rx 0 0000000E s 8 20 6A 3F FF 08 FF F0 5C 
22:20:15:922 Rx 0 00000288 s 8 00 00 00 00 00 1B 00 00 
22:20:15:922 Rx 0 00000108 s 4 00 00 0D 23 
22:20:15:922 Rx 0 00000168 s 8 30 0D 1C 7F 00 00 D0 0E 
22:20:15:922 Rx 0 00000368 s 8 00 5A 1F 00 00 08 00 FF 
22:20:15:922 Rx 0 000002A8 s 8 00 00 00 00 00 00 00 1B 
22:20:15:922 Rx 0 00000102 s 6 13 96 D7 FF 99 FF 
22:20:15:922 Rx 0 00000228 s 4 40 C0 00 B2 
22:20:15:922 Rx 0 00000154 s 8 04 17 14 00 00 00 00 00 
22:20:15:922 Rx 0 00000106 s 8 00 60 00 00 FF FF 00 65 
22:20:15:922 Rx 0 00000754 s 8 65 FD FF 00 00 00 00 00 
22:20:15:922 Rx 0 00000116 s 6 00 90 F4 11 9B 47 
22:20:15:922 Rx 0 00000754 s 8 67 00 95 00 00 00 00 00 
22:20:15:922 Rx 0 00000102 s 6 13 96 D7 FF 99 FF 
22:20:15:922 Rx 0 00000754 s 8 66 00 00 00 00 00 00 00 
22:20:15:932 Rx 0 00000228 s 4 40 C0 10 7F 
22:20:15:932 Rx 0 00000754 s 8 0A 00 00 00 00 00 00 00 
22:20:15:932 Rx 0 0000000E s 8 20 6A 3F FF 08 FF 00 23 
22:20:15:932 Rx 0 00000268 s 8 55 00 3C 02 BD 07 36 00 
22:20:15:932 Rx 0 00000248 s 7 30 30 1D 8C 01 15 00 
22:20:15:932 Rx 0 0000020C s 8 00 00 00 00 00 00 F0 00 
22:20:15:932 Rx 0 0000022C s 8 00 00 26 8F 00 00 D6 CE 
22:20:15:932 Rx 0 0000024C s 8 AB 7D 00 00 00 F1 00 C6 
22:20:15:932 Rx 0 0000024C s 8 AB 7D 00 00 00 00 00 00 
22:20:15:932 Rx 0 0000040C s 1 00 
22:20:15:932 Rx 0 0000052C s 8 00 00 00 00 00 00 0A 00 
22:20:15:932 Rx 0 00000154 s 8 04 17 14 00 00 00 00 00 
22:20:15:932 Rx 0 00000106 s 8 00 80 00 00 FF FF 00 85 
22:20:15:932 Rx 0 0000071C s 8 09 00 C4 FF 00 00 C4 FF 
22:20:15:932 Rx 0 00000116 s 6 00 90 F4 11 9C 48 
22:20:15:932 Rx 0 00000102 s 6 07 96 E0 FF 95 FF 
22:20:15:942 Rx 0 0000000E s 8 20 6A 3F FF 08 FF 10 EE 
22:20:15:942 Rx 0 000002A8 s 8 00 00 00 00 00 00 00 1B 
22:20:15:942 Rx 0 0000031E s 6 00 00 00 00 00 00 
22:20:15:942 Rx 0 0000040E s 1 00 
22:20:15:942 Rx 0 00000288 s 8 00 00 00 00 00 1B 00 00 
22:20:15:942 Rx 0 00000108 s 4 00 00 0E 24 
22:20:15:942 Rx 0 00000168 s 8 32 0D 1C 7F 00 00 E0 20 
22:20:15:942 Rx 0 000001F8 s 8 01 EF F0 A6 D3 E7 00 00 
22:20:15:942 Rx 0 00000228 s 4 40 C0 20 35 
22:20:15:942 Rx 0 000002C8 s 8 6E 80 03 7B 00 00 F0 26 
22:20:15:942 Rx 0 00000228 s 4 40 C0 20 35 
22:20:15:942 Rx 0 00000154 s 8 04 17 14 00 00 00 00 00 
22:20:15:942 Rx 0 00000106 s 8 00 A0 00 00 FF FF 00 A5 
22:20:15:942 Rx 0 00000116 s 6 00 90 F4 11 9D 49 
22:20:15:942 Rx 0 00000102 s 6 20 96 E0 FF C8 FF 
22:20:15:952 Rx 0 0000000E s 8 20 6A 3F FF 08 FF 20 A4 
22:20:15:952 Rx 0 00000228 s 4 40 C0 30 F8 
22:20:15:952 Rx 0 00000116 s 6 00 90 F4 11 9E 4A 
22:20:15:952 Rx 0 00000106 s 8 00 C0 00 00 FF FF 00 C5 
22:20:15:952 Rx 0 00000116 s 6 00 90 F4 11 9E 4A 
22:20:15:952 Rx 0 00000102 s 6 20 96 DB FF CF FF 
22:20:15:952 Rx 0 000003D8 s 3 86 06 00 
22:20:15:952 Rx 0 00000408 s 1 10 
22:20:15:962 Rx 0 0000000E s 8 20 6A 3F FF 08 FF 30 69 
22:20:15:962 Rx 0 00000108 s 4 00 00 0F 25 
22:20:15:962 Rx 0 00000278 s 8 12 00 40 02 04 00 F0 4E 
22:20:15:962 Rx 0 000001F8 s 8 01 EF F0 B6 D3 F7 00 00 
22:20:15:962 Rx 0 00000168 s 8 33 0D 1C 7F 00 00 F0 31 
22:20:15:962 Rx 0 00000102 s 6 2D 96 D4 FF CC FF 
22:20:15:962 Rx 0 000002A8 s 8 00 00 00 00 00 00 00 1B 
22:20:15:962 Rx 0 00000228 s 4 40 C0 40 A1 
22:20:15:962 Rx 0 00000154 s 8 04 17 14 00 00 00 00 00 
22:20:15:962 Rx 0 00000106 s 8 00 E0 00 00 FF FF 00 E5 
22:20:15:962 Rx 0 00000256 s 8 81 02 00 30 00 F0 00 FB 
22:20:15:962 Rx 0 00000116 s 6 00 90 F4 11 9F 4B 
22:20:15:962 Rx 0 00000656 s 8 0D 00 00 00 D3 F8 72 F1 
22:20:15:962 Rx 0 00000656 s 8 0D 00 00 00 D3 F8 72 4B 
22:20:15:972 Rx 0 00000506 s 8 01 00 00 00 FE 00 00 0D 
22:20:15:972 Rx 0 00000516 s 8 00 00 00 00 00 00 22 00 
22:20:15:972 Rx 0 00000306 s 8 44 3F 40 47 40 3F A4 7D 
22:20:15:972 Rx 0 00000556 s 6 3F 3F 40 00 00 00 
22:20:15:972 Rx 0 00000316 s 6 D0 6E CA 82 00 78 
22:20:15:972 Rx 0 00000326 s 8 00 00 00 00 00 00 00 00 
22:20:15:972 Rx 0 00000356 s 8 00 00 00 00 00 00 00 00 
22:20:15:972 Rx 0 00000346 s 8 00 00 00 00 00 00 00 00 
22:20:15:972 Rx 0 00000228 s 4 40 C0 50 6C 
22:20:15:972 Rx 0 00000366 s 8 00 00 00 00 00 00 00 00 
22:20:15:972 Rx 0 00000386 s 8 00 00 00 00 00 00 00 00 
22:20:15:972 Rx 0 00000396 s 8 00 00 00 00 00 00 00 00 
22:20:15:972 Rx 0 00000267 s 3 FF FF FF 
22:20:15:972 Rx 0 0000000E s 8 20 6A 3F FF 08 FF 40 30 
22:20:15:972 Rx 0 0000021C s 8 00 08 00 00 86 01 00 14 
22:20:15:972 Rx 0 00000154 s 8 04 17 14 00 00 F1 00 C8 
22:20:15:972 Rx 0 00000154 s 8 04 17 14 00 00 00 00 00 
22:20:15:972 Rx 0 00000106 s 8 00 00 00 00 FF FF 00 05 
22:20:15:972 Rx 0 00000116 s 6 00 90 F4 11 90 3C 
22:20:15:972 Rx 0 00000102 s 6 14 96 CF FF C7 FF 
22:20:15:972 Rx 0 00000238 s 8 00 FF 00 00 00 00 31 54 
22:20:15:982 Rx 0 0000000E s 8 20 6A 3F FF 08 FF 50 FD 
22:20:15:982 Rx 0 0000028A s 8 0A 00 FF 1F 00 01 00 00 
22:20:15:982 Rx 0 00000108 s 4 00 00 00 16 
22:20:15:982 Rx 0 00000288 s 8 00 00 00 00 00 1B 00 00 
22:20:15:982 Rx 0 00000228 s 4 40 C0 60 26 
22:20:15:982 Rx 0 0000034A s 1 00 
22:20:15:982 Rx 0 00000168 s 8 34 0D 1C 7F 00 00 00 42 
22:20:15:982 Rx 0 000001F8 s 8 01 EF F0 C6 D3 07 00 00 
22:20:15:982 Rx 0 0000035A s 8 00 00 02 03 70 00 80 7E 
22:20:15:982 Rx 0 000002A8 s 8 00 00 00 00 00 00 00 1B 
22:20:15:982 Rx 0 0000074A s 8 00 00 00 00 00 00 00 00 
22:20:15:982 Rx 0 00000106 s 8 00 20 00 00 FF F1 00 6E 
22:20:15:982 Rx 0 00000106 s 8 00 20 00 00 FF FF 00 25 
22:20:15:982 Rx 0 00000116 s 6 00 90 F4 11 91 3D 
22:20:15:982 Rx 0 00000125 s 4 FF 02 2B 04 
22:20:15:982 Rx 0 00000102 s 6 14 96 D2 FF 94 FF 
22:20:15:982 Rx 0 00000138 s 5 00 14 4A 00 00 
22:20:15:992 Rx 0 0000025A s 8 00 00 00 00 00 00 00 00 
22:20:15:992 Rx 0 0000023A s 8 00 38 00 12 00 00 00 00 
22:20:15:992 Rx 0 0000027A s 7 30 30 0D 8C 09 15 00 
22:20:15:992 Rx 0 0000022A s 8 67 01 5E 1D 00 00 00 00 
22:20:15:992 Rx 0 0000027A s 7 30 30 0D 8C 09 15 00 
22:20:15:992 Rx 0 0000029A s 8 01 36 FE 00 00 00 00 00 
22:20:15:992 Rx 0 00000210 s 7 00 00 E3 1D 1F 86 FF 
22:20:15:992 Rx 0 0000000E s 8 20 6A 3F FF 08 FF 60 B7 
22:20:15:992 Rx 0 00000228 s 4 40 C0 70 EB 
22:20:15:992 Rx 0 0000028C s 8 00 00 00 00 00 00 F0 00 
22:20:15:992 Rx 0 000002AC s 8 0D 00 2C 90 00 00 D6 CE 
22:20:15:992 Rx 0 00000106 s 8 00 40 00 00 FF FF 00 45 
22:20:15:992 Rx 0 000002BC s 8 3F 40 41 78 7E 64 00 00 
22:20:15:992 Rx 0 00000106 s 8 00 40 00 00 FF FF 00 45 
22:20:15:992 Rx 0 000002CC s 8 AB 7D 00 00 00 00 00 00 
22:20:15:992 Rx 0 00000116 s 6 00 90 F4 11 92 3E 
22:20:15:992 Rx 0 00000102 s 6 07 96 D6 FF 94 FF 
22:20:15:992 Rx 0 000003A8 s 8 30 30 31 00 03 00 00 00 
22:20:15:992 Rx 0 0000048C s 1 00 
22:20:15:992 Rx 0 00000258 s 8 2F C8 36 D8 46 05 00 8F 
22:20:16:2 Rx 0 00000202 s 8 FD 5E 45 9D C4 09 1E 2D 
22:20:16:2 Rx 0 0000079C s 8 0C 00 00 00 00 00 00 00 
22:20:16:2 Rx 0 00000202 s 8 FD 5E 45 9D C4 09 1E 2D 
22:20:16:2 Rx 0 000006F2 s 8 0A 50 73 D4 0C 35 37 CD 
22:20:16:2 Rx 0 00000212 s 5 D8 00 12 71 00 
22:20:16:2 Rx 0 00000222 s 7 00 00 10 96 00 10 70 
22:20:16:2 Rx 0 000002A2 s 7 00 00 10 96 00 10 70 
22:20:16:2 Rx 0 00000232 s 4 07 24 68 82 
22:20:16:2 Rx 0 00000402 s 2 10 00 
22:20:16:2 Rx 0 00000288 s 8 00 00 00 00 00 1B 00 00 
22:20:16:2 Rx 0 0000000E s 8 20 6B 3F FF 08 FF 70 3C 
22:20:16:2 Rx 0 00000288 s 8 00 00 00 00 00 1B 00 00 
22:20:16:2 Rx 0 00000108 s 4 00 00 01 17 
22:20:16:2 Rx 0 00000168 s 8 34 0D 1C 7F 00 00 10 52 
22:20:16:2 Rx 0 000001F8 s 8 01 EF F0 D5 D2 17 00 00 
22:20:16:2 Rx 0 000002A8 s 8 00 00 00 00 00 00 00 1B 
22:20:16:2 Rx 0 00000228 s 4 40 C0 80 94 
22:20:16:2 Rx 0 0000029C s 8 00 08 00 00 87 01 00 14 
22:20:16:2 Rx 0 00000154 s 8 04 17 14 00 00 00 00 00 
22:20:16:2 Rx 0 00000358 s 8 04 07 50 01 F0 00 00 30 
22:20:16:2 Rx 0 00000154 s 8 04 17 14 00 00 00 00 00 
22:20:16:2 Rx 0 00000106 s 8 00 60 00 00 FF FF 00 65 
22:20:16:2 Rx 0 00000116 s 6 00 90 F4 11 93 3F 
22:20:16:2 Rx 0 00000102 s 6 07 96 DC FF 92 FF 
22:20:16:2 Rx 0 0000026A s 3 FA 01 00 
22:20:16:12 Rx 0 0000000E s 8 20 6B 3F FF 08 FF 80 43 
22:20:16:12 Rx 0 00000228 s 4 40 C0 90 59 
22:20:16:12 Rx 0 00000116 s 6 00 90 F4 11 94 40 
22:20:16:12 Rx 0 00000106 s 8 00 80 00 00 FF FF 00 85 
22:20:16:12 Rx 0 00000116 s 6 00 90 F4 11 94 40 
22:20:16:12 Rx 0 00000126 s 7 02 03 00 00 00 48 09 
22:20:16:12 Rx 0 00000102 s 6 07 96 E1 FF 9A FF 
22:20:16:22 Rx 0 0000000E s 8 20 6B 3F FF 08 FF 90 8E 
22:20:16:22 Rx 0 00000288 s 8 00 00 00 00 00 1B 00 00 
22:20:16:22 Rx 0 00000108 s 4 00 00 02 18 
22:20:16:22 Rx 0 00000168 s 8 34 0D 1C 7F 00 00 20 62 
22:20:16:22 Rx 0 00000228 s 4 40 C0 A0 13 
22:20:16:22 Rx 0 000002A8 s 8 00 00 00 00 00 00 00 1B 
22:20:16:22 Rx 0 00000368 s 8 00 5A 1F 00 00 F1 00 4E 
22:20:16:22 Rx 0 00000106 s 8 00 A0 00 00 FF FF 00 A5 
22:20:16:22 Rx 0 00000754 s 8 65 FD FF 00 00 00 00 00 
22:20:16:22 Rx 0 00000116 s 6 00 90 F4 11 95 41 
22:20:16:22 Rx 0 00000102 s 6 20 96 DE FF CE FF 
22:20:16:22 Rx 0 00000754 s 8 67 00 95 00 00 00 00 00 
22:20:16:22 Rx 0 00000368 s 8 00 5A 1F 00 00 08 00 FF 
22:20:16:32 Rx 0 00000754 s 8 66 00 00 00 00 00 00 00 
22:20:16:32 Rx 0 0000023C s 8 3F 40 41 78 7E 64 00 00 
22:20:16:32 Rx 0 00000754 s 8 0A 00 00 00 00 00 00 00 
22:20:16:32 Rx 0 0000000E s 8 20 6B 3F FF 08 FF A0 C4 
22:20:16:32 Rx 0 00000248 s 7 30 30 1D 8C 01 15 00 
22:20:16:32 Rx 0 00000268 s 8 55 00 1D 02 BD 07 36 00 
22:20:16:32 Rx 0 0000020C s 8 00 00 00 00 00 00 F0 00 
22:20:16:32 Rx 0 0000022C s 8 00 00 28 8F 00 00 D6 CE 
22:20:16:32 Rx 0 0000024C s 8 AB 7D 00 00 00 00 00 00 
22:20:16:32 Rx 0 00000228 s 4 40 C0 B0 DE 
22:20:16:32 Rx 0 0000024C s 8 AB 7D 00 00 00 00 00 00 
22:20:16:32 Rx 0 0000040C s 1 00 
22:20:16:32 Rx 0 0000071C s 8 0A 00 00 00 00 00 00 00 
22:20:16:32 Rx 0 00000154 s 8 04 17 14 00 00 00 00 00 
22:20:16:32 Rx 0 00000106 s 8 00 C0 00 00 FF FF 00 C5 
22:20:16:32 Rx 0 00000116 s 6 00 90 F4 11 96 42 
22:20:16:32 Rx 0 00000102 s 6 14 96 D7 FF D0 FF 
22:20:16:42 Rx 0 0000032E s 4 00 00 00 00 
22:20:16:42 Rx 0 0000000E s 8 20 6B 3F FF 08 FF B0 09 
22:20:16:42 Rx 0 00000228 s 4 40 C0 C0 87 
22:20:16:42 Rx 0 0000040E s 1 00 
22:20:16:42 Rx 0 00000108 s 4 00 00 03 19 
22:20:16:42 Rx 0 00000288 s 8 00 00 00 00 00 1B 00 00 
22:20:16:42 Rx 0 00000168 s 8 35 0D 1C 7F 00 00 30 73 
22:20:16:42 Rx 0 000001F8 s 8 01 EF F0 F6 D3 37 00 00 
22:20:16:42 Rx 0 000002A8 s 8 00 00 00 00 00 00 00 1B 
22:20:16:42 Rx 0 00000106 s 8 00 E0 00 00 FF F1 00 8A 
22:20:16:42 Rx 0 00000106 s 8 00 E0 00 00 FF FF 00 E5 
22:20:16:42 Rx 0 000002C8 s 8 6E 80 03 7B 00 00 00 36 
22:20:16:42 Rx 0 00000116 s 6 00 90 F4 11 97 43 
22:20:16:42 Rx 0 00000102 s 6 14 96 CF FF CC FF 
22:20:16:52 Rx 0 0000000E s 8 20 6B 3F FF 08 FF C0 50 
22:20:16:52 Rx 0 000003D8 s 3 86 06 00 
22:20:16:52 Rx 0 00000408 s 1 20 
22:20:16:52 Rx 0 00000106 s 8 00 00 00 00 FF F1 00 51 
22:20:16:52 Rx 0 00000106 s 8 00 00 00 00 FF FF 00 05 
22:20:16:52 Rx 0 00000116 s 6 00 90 F4 11 98 44 
22:20:16:52 Rx 0 00000102 s 6 07 96 D0 FF 98 FF 
22:20:16:62 Rx 0 0000000E s 8 20 6B 3F FF 08 FF D0 9D 
22:20:16:62 Rx 0 00000278 s 8 12 00 40 02 04 00 00 5E 
22:20:16:62 Rx 0 00000108 s 4 00 00 04 1A 
22:20:16:62 Rx 0 00000288 s 8 00 00 00 00 00 1B 00 00 
22:20:16:62 Rx 0 000002A8 s 8 00 00 00 00 00 00 00 1B 
22:20:16:62 Rx 0 000001F8 s 8 01 EF F0 06 D3 47 00 00 
22:20:16:62 Rx 0 00000102 s 6 07 96 D4 FF 98 FF 
22:20:16:62 Rx 0 00000228 s 4 40 C0 E0 00 
22:20:16:62 Rx 0 00000154 s 8 04 17 14 00 00 00 00 00 
22:20:16:62 Rx 0 00000106 s 8 00 20 00 00 FF FF 00 25 
22:20:16:62 Rx 0 00000256 s 8 81 02 00 30 00 00 00 0B 
22:20:16:62 Rx 0 00000116 s 6 00 90 F4 11 99 45 
22:20:16:62 Rx 0 00000266 s 8 85 04 00 00 00 70 0A 4B 
22:20:16:62 Rx 0 00000102 s 6 07 96 D4 FF 98 FF 
22:20:16:72 Rx 0 0000000E s 8 20 6A 3F FF 08 FF E0 91 
22:20:16:72 Rx 0 00000102 s 6 15 96 DA FF 93 FF 
22:20:16:72 Rx 0 0000025C s 8 01 02 26 9A 6C 00 8B 04 
22:20:16:72 Rx 0 00000228 s 4 40 C0 F0 CD 
22:20:16:72 Rx 0 00000238 s 8 00 FF 00 00 00 00 41 0D 
22:20:16:72 Rx 0 00000154 s 8 04 17 14 00 00 00 00 00 
22:20:16:72 Rx 0 00000106 s 8 00 40 00 00 FF FF 00 45 
22:20:16:72 Rx 0 00000116 s 6 00 90 F4 11 9A 46 
22:20:16:72 Rx 0 00000102 s 6 15 96 DA FF 93 FF 
22:20:16:82 Rx 0 00000218 s 8 7D 04 FF 07 FF 00 10 CD 
22:20:16:82 Rx 0 000002A8 s 8 00 00 00 00 00 00 00 1B 
22:20:16:82 Rx 0 0000028A s 8 0A 00 FF 1F 00 01 00 00 
22:20:16:82 Rx 0 000003CA s 8 00 00 00 00 00 00 00 00 
22:20:16:82 Rx 0 00000288 s 8 00 00 00 00 00 1B 00 00 
22:20:16:82 Rx 0 00000108 s 4 00 00 05 1B 
22:20:16:82 Rx 0 00000168 s 8 34 0D 1C 7F 00 00 50 92 
22:20:16:82 Rx 0 000001F8 s 8 01 EF F0 16 D3 57 00 00 
22:20:16:82 Rx 0 00000138 s 5 00 15 4B 00 00 
22:20:16:82 Rx 0 00000125 s 4 FF 03 2D 05 
22:20:16:82 Rx 0 00000138 s 5 00 15 4B 00 00 
22:20:16:82 Rx 0 00000228 s 4 40 C0 00 B2 
22:20:16:82 Rx 0 00000154 s 8 04 17 14 00 00 00 00 00 
22:20:16:82 Rx 0 00000106 s 8 00 60 00 00 FF FF 00 65 
22:20:16:82 Rx 0 00000116 s 6 00 90 F4 11 9B 47 
22:20:16:82 Rx 0 00000102 s 6 0A 96 E0 FF 92 FF 
22:20:16:92 Rx 0 0000025A s 8 00 00 00 00 00 00 00 00 
22:20:16:92 Rx 0 0000022A s 8 67 01 5E 1D 00 00 00 00 
22:20:16:92 Rx 0 0000021A s 8 FE 36 12 FE 69 05 07 AD 
22:20:16:92 Rx 0 00000228 s 4 40 C0 10 7F 
22:20:16:92 Rx 0 0000027A s 7 30 30 0D 8C 09 15 00 
22:20:16:92 Rx 0 0000029A s 8 01 36 FE 00 00 00 00 00 
22:20:16:92 Rx 0 00000210 s 7 00 00 E3 1D 1F 86 FF 
22:20:16:92 Rx 0 0000000E s 8 20 6A 3F FF 08 FF 00 23 
22:20:16:92 Rx 0 00000258 s 8 2F C8 36 D8 46 05 00 8F 
22:20:16:92 Rx 0 00000202 s 8 FD 5E 45 9D C4 09 1E 2D 
22:20:16:92 Rx 0 0000028C s 8 00 00 00 00 00 F1 00 EB 
22:20:16:92 Rx 0 0000028C s 8 00 00 00 00 00 00 F0 00 
22:20:16:92 Rx 0 00000154 s 8 04 17 14 00 00 00 00 00 
22:20:16:92 Rx 0 000002AC s 8 0F 00 26 90 00 00 D6 CE 
22:20:16:92 Rx 0 00000106 s 8 00 80 00 00 FF FF 00 85 
22:20:16:92 Rx 0 000002BC s 8 3F 40 41 78 7E 64 00 00 
22:20:16:92 Rx 0 00000116 s 6 00 90 F4 11 9C 48 
22:20:16:92 Rx 0 000002CC s 8 AB 7D 00 00 00 00 00 00 
22:20:16:92 Rx 0 000003A8 s 8 30 30 31 00 03 00 00 F1 
22:20:16:92 Rx 0 000003A8 s 8 30 30 31 00 03 00 00 00 
22:20:16:102 Rx 0 0000020A s 8 00 01 01 82 B1 3F 11 11 
22:20:16:102 Rx 0 0000048C s 1 00 
22:20:16:102 Rx 0 0000059C s 8 01 00 00 00 FE 00 00 09 
22:20:16:102 Rx 0 000006F2 s 8 0B 4F B3 D3 0C 35 43 CD 
22:20:16:102 Rx 0 00000222 s 7 00 00 11 96 00 10 70 
22:20:16:102 Rx 0 0000079C s 8 0D 30 03 00 00 00 00 00 
22:20:16:102 Rx 0 00000402 s 2 10 00 
22:20:16:102 Rx 0 00000232 s 4 07 24 68 82 
22:20:16:102 Rx 0 00000328 s 8 8A 8A 8C F1 00 DF DF F6 
22:20:16:102 Rx 0 0000000E s 8 20 6A 3F FF 08 FF 10 EE 
22:20:16:102 Rx 0 0000051A s 8 43 09 00 00 00 00 00 00 
22:20:16:102 Rx 0 00000308 s 8 E9 EB 10 11 B9 30 00 00 
22:20:16:102 Rx 0 00000288 s 8 00 00 00 00 00 1B 00 00 
22:20:16:102 Rx 0 00000108 s 4 00 00 06 1C 
22:20:16:102 Rx 0 000001F8 s 8 01 EF F0 26 D3 67 00 00 
22:20:16:102 Rx 0 00000168 s 8 34 0D 1C 7F 00 00 60 A2 
22:20:16:102 Rx 0 000001F8 s 8 01 EF F0 26 D3 67 00 00 
22:20:16:102 Rx 0 000002A8 s 8 00 00 00 00 00 00 00 1B 
22:20:16:102 Rx 0 000003F8 s 8 A4 02 9A 02 92 02 96 02 
22:20:16:102 Rx 0 00000318 s 8 7B 78 7F 14 62 00 00 00 
22:20:16:102 Rx 0 00000228 s 4 40 C0 20 35 
22:20:16:102 Rx 0 0000029C s 8 00 08 00 00 87 01 00 14 
22:20:16:102 Rx 0 000002DC s 8 00 00 00 00 00 00 00 00 
22:20:16:102 Rx 0 00000358 s 8 04 07 50 01 F0 00 00 30 
22:20:16:102 Rx 0 00000154 s 8 04 17 14 00 00 00 00 00 
22:20:16:102 Rx 0 00000358 s 8 04 07 50 01 F0 00 00 30 
22:20:16:102 Rx 0 00000106 s 8 00 A0 00 00 FF FF 00 A5 
22:20:16:102 Rx 0 00000116 s 6 00 90 F4 11 9D 49 
22:20:16:102 Rx 0 00000102 s 6 2E 96 DA FF CD FF 
22:20:16:102 Rx 0 0000026A s 3 FA 01 00 
22:20:16:112 Rx 0 0000000E s 8 20 6A 3F FF 08 FF 20 A4 
22:20:16:112 Rx 0 00000228 s 4 40 C0 30 F8 
22:20:16:112 Rx 0 00000106 s 8 00 C0 00 00 FF FF 00 C5 
22:20:16:112 Rx 0 00000154 s 8 04 17 14 00 00 00 00 00 
22:20:16:112 Rx 0 00000106 s 8 00 C0 00 00 FF FF 00 C5 
22:20:16:112 Rx 0 00000116 s 6 00 90 F4 11 9E 4A 
22:20:16:112 Rx 0 00000126 s 7 02 03 00 00 00 48 09 
22:20:16:112 Rx 0 00000102 s 6 23 96 D3 FF D0 FF 
22:20:16:122 Rx 0 0000000E s 8 20 6A 3F FF 08 FF 30 69 
22:20:16:122 Rx 0 00000288 s 8 00 00 00 00 00 1B 00 00 
22:20:16:122 Rx 0 00000108 s 4 00 00 07 1D 
22:20:16:122 Rx 0 000002A8 s 8 00 00 00 00 00 00 00 1B 
22:20:16:122 Rx 0 000001F8 s 8 01 EF F0 36 D3 77 00 00 
22:20:16:122 Rx 0 00000116 s 6 00 90 F4 11 9F 4B 
22:20:16:122 Rx 0 00000368 s 8 00 5A 1F 00 00 08 00 FF 
22:20:16:122 Rx 0 00000228 s 4 40 C0 40 A1 
22:20:16:122 Rx 0 000003DC s 8 00 00 00 00 00 00 00 00 
22:20:16:122 Rx 0 00000154 s 8 04 17 14 00 00 00 00 00 
22:20:16:122 Rx 0 00000754 s 8 65 FD FF 00 00 00 00 00 
22:20:16:122 Rx 0 00000106 s 8 00 E0 00 00 FF FF 00 E5 
22:20:16:122 Rx 0 00000102 s 6 16 96 D0 FF B7 FF 
22:20:16:122 Rx 0 00000754 s 8 67 00 95 00 00 00 00 00 
22:20:16:122 Rx 0 00000102 s 6 16 96 D0 FF B7 FF 
22:20:16:122 Rx 0 00000754 s 8 66 00 00 00 00 00 00 00 
22:20:16:132 Rx 0 00000754 s 8 64 00 00 00 00 00 00 00 
22:20:16:132 Rx 0 00000754 s 8 0A 00 00 00 00 00 00 00 
22:20:16:132 Rx 0 00000268 s 8 55 00 1D 02 BD 07 36 00 
22:20:16:132 Rx 0 0000000E s 8 20 6A 3F FF 08 FF 40 30 
22:20:16:132 Rx 0 0000020C s 8 00 00 00 00 00 00 F0 00 
22:20:16:132 Rx 0 00000228 s 4 40 C0 50 6C 
22:20:16:132 Rx 0 0000023C s 8 3F 40 41 78 7E 64 00 00 
22:20:16:132 Rx 0 0000071C s 8 0B 00 00 00 00 F1 00 06 
22:20:16:132 Rx 0 0000024C s 8 AB 7D 00 00 00 00 00 00 
22:20:16:132 Rx 0 000003AC s 8 00 00 00 00 00 00 00 00 
22:20:16:132 Rx 0 0000040C s 1 00 
22:20:16:132 Rx 0 00000154 s 8 04 17 14 00 00 00 00 00 
22:20:16:132 Rx 0 00000106 s 8 00 00 00 00 FF FF 00 05 
22:20:16:132 Rx 0 00000102 s 6 0A 96 D2 FF 95 FF 
22:20:16:132 Rx 0 00000116 s 6 00 90 F4 11 90 3C 
22:20:16:132 Rx 0 00000102 s 6 0A 96 D2 FF 95 FF 
22:20:16:142 Rx 0 0000000E s 8 20 6B 3F FF 08 FF 50 BB 
22:20:16:142 Rx 0 0000020E s 8 88 10 00 13 BB 00 06 00 
22:20:16:142 Rx 0 0000033E s 8 00 00 00 00 00 00 00 00 
22:20:16:142 Rx 0 0000040E s 1 00 
22:20:16:142 Rx 0 00000288 s 8 00 00 00 00 00 1B 00 00 
22:20:16:142 Rx 0 00000108 s 4 00 00 08 1E 
22:20:16:142 Rx 0 000002A8 s 8 00 00 00 00 00 00 00 1B 
22:20:16:142 Rx 0 000001F8 s 8 01 EF F0 46 D3 87 00 00 
22:20:16:142 Rx 0 000002A8 s 8 00 00 00 00 00 00 00 1B 
22:20:16:142 Rx 0 00000228 s 4 40 C0 60 26 
22:20:16:142 Rx 0 000003BC s 8 00 55 55 55 01 00 00 00 
22:20:16:142 Rx 0 00000154 s 8 04 17 14 00 00 00 00 00 
22:20:16:142 Rx 0 00000106 s 8 00 20 00 00 FF FF 00 25 
22:20:16:142 Rx 0 00000116 s 6 00 90 F4 11 91 3D 
22:20:16:142 Rx 0 000002C8 s 8 6E 80 03 7B 00 00 10 46 
22:20:16:142 Rx 0 00000102 s 6 16 96 D5 FF 94 FF 
22:20:16:152 Rx 0 0000000E s 8 20 6B 3F FF 08 FF 60 F1 
22:20:16:152 Rx 0 000003D8 s 3 86 06 00 
22:20:16:152 Rx 0 00000408 s 1 30 
22:20:16:152 Rx 0 00000228 s 4 40 C0 70 EB 
22:20:16:152 Rx 0 00000154 s 8 04 17 14 00 00 00 00 00 
22:20:16:152 Rx 0 00000106 s 8 00 40 00 00 FF FF 00 45 
22:20:16:152 Rx 0 00000116 s 6 00 90 F4 11 92 3E 
22:20:16:152 Rx 0 00000102 s 6 0A 96 DE FF 97 FF 
22:20:16:162 Rx 0 00000278 s 8 12 00 40 02 04 00 10 6E 
22:20:16:162 Rx 0 00000108 s 4 00 00 09 1F 
22:20:16:162 Rx 0 00000106 s 8 00 60 00 00 FF FF 00 65 
22:20:16:162 Rx 0 00000288 s 8 00 00 00 00 00 1B 00 00 
22:20:16:162 Rx 0 00000168 s 8 34 0D 1C 7F 00 00 90 D2 
22:20:16:162 Rx 0 000001F8 s 8 01 EF F0 56 D3 97 00 00 
22:20:16:162 Rx 0 000002A8 s 8 00 00 00 00 00 00 00 1B 
22:20:16:162 Rx 0 00000228 s 4 40 C0 80 94 
22:20:16:162 Rx 0 00000154 s 8 04 17 14 00 00 00 00 00 
22:20:16:162 Rx 0 00000116 s 6 00 90 F4 11 93 3F 
22:20:16:162 Rx 0 00000256 s 8 81 02 00 30 00 10 00 1B 
22:20:16:162 Rx 0 00000116 s 6 00 90 F4 11 93 3F 
22:20:16:162 Rx 0 00000102 s 6 23 96 E1 FF A0 FF 
22:20:16:162 Rx 0 00000266 s 8 85 04 00 00 00 70 0A 4B 
22:20:16:172 Rx 0 0000000E s 8 20 6B 3F FF 08 FF 80 43 
22:20:16:172 Rx 0 0000021C s 8 00 08 00 00 86 01 00 14 
22:20:16:172 Rx 0 0000025C s 8 01 02 26 9A 50 00 92 04 
22:20:16:172 Rx 0 00000228 s 4 40 C4 90 74 
22:20:16:172 Rx 0 00000154 s 8 04 17 14 00 00 00 00 00 
22:20:16:172 Rx 0 00000106 s 8 00 80 00 00 FF FF 00 85 
22:20:16:172 Rx 0 00000154 s 8 04 17 14 00 00 00 00 00 
22:20:16:172 Rx 0 00000116 s 6 00 90 F4 31 94 60 
22:20:16:172 Rx 0 00000102 s 6 0A 96 DD FF CF FF 
22:20:16:182 Rx 0 00000338 s 8 D6 00 F7 00 27 01 54 54 
22:20:16:182 Rx 0 0000000E s 8 20 6B 3F FF 08 FF 90 8E 
22:20:16:182 Rx 0 0000028A s 8 0A 00 FF 1F 00 01 00 00 
22:20:16:182 Rx 0 0000030A s 8 00 01 7C B3 02 41 00 17 
22:20:16:182 Rx 0 00000288 s 8 00 00 00 00 00 1B 00 00 
22:20:16:182 Rx 0 0000065A s 8 0E 17 85 00 00 00 00 00 
22:20:16:182 Rx 0 00000125 s 4 FF 02 2D 06 
22:20:16:182 Rx 0 00000108 s 4 00 00 0A 20 
22:20:16:182 Rx 0 0000048A s 8 00 00 00 00 00 00 00 00 
22:20:16:182 Rx 0 00000168 s 8 34 0D 1C 7F 00 00 A0 E2 
22:20:16:182 Rx 0 000001F8 s 8 01 EF F0 66 D3 A7 00 00 
22:20:16:182 Rx 0 000002A8 s 8 00 00 00 00 00 00 00 1B 
22:20:16:182 Rx 0 00000228 s 4 40 C4 A0 3E 
22:20:16:182 Rx 0 00000138 s 5 00 16 4C 00 00 
22:20:16:182 Rx 0 00000138 s 5 00 16 4C 00 00 
22:20:16:182 Rx 0 00000106 s 8 00 A0 00 00 FF FF 00 A5 
22:20:16:182 Rx 0 00000116 s 6 00 90 F4 31 95 61 
22:20:16:182 Rx 0 00000102 s 6 23 96 D7 FF CF FF 
22:20:16:192 Rx 0 0000025A s 8 00 00 00 00 00 00 00 00 
22:20:16:192 Rx 0 0000023A s 8 00 38 00 12 00 00 00 00 
22:20:16:192 Rx 0 0000021A s 8 FE 36 12 FE 69 05 07 AD 
22:20:16:192 Rx 0 0000024A s 8 FE FE FE FE FE FE FE 14 
22:20:16:192 Rx 0 0000027A s 7 30 30 0D 8C 09 15 00 
22:20:16:192 Rx 0 00000222 s 7 00 00 14 96 00 10 70 
22:20:16:192 Rx 0 0000029A s 8 01 36 FE 00 00 00 00 00 
22:20:16:192 Rx 0 00000210 s 7 00 00 E3 1D 1F 86 FF 
22:20:16:192 Rx 0 0000000E s 8 20 6B 3F FF 08 FF A0 C4 
22:20:16:192 Rx 0 00000202 s 8 FD 5E 45 9D C4 09 1E 2D 
22:20:16:192 Rx 0 000006F2 s 8 0C 4B B3 D2 9C 34 23 CD 
22:20:16:192 Rx 0 00000212 s 5 D8 00 12 71 00 
22:20:16:192 Rx 0 00000232 s 4 02 24 68 82 
22:20:16:192 Rx 0 000002A2 s 7 00 00 14 96 00 10 70 
22:20:16:192 Rx 0 00000232 s 4 02 24 68 82 
22:20:16:192 Rx 0 00000402 s 2 10 00 
22:20:16:192 Rx 0 000003A2 s 8 FF 0F FF 0F 00 00 00 32 
22:20:16:192 Rx 0 00000228 s 4 40 C4 B0 F3 
22:20:16:192 Rx 0 0000028C s 8 00 00 00 00 00 00 F0 00 
22:20:16:192 Rx 0 000002AC s 8 0F 00 24 90 00 00 D6 CE 
22:20:16:192 Rx 0 000002BC s 8 3F 40 41 78 7E 64 00 00 
22:20:16:192 Rx 0 00000106 s 8 00 C0 00 00 FF FF 00 C5 
22:20:16:192 Rx 0 00000154 s 8 00 17 14 00 00 00 00 00 
22:20:16:192 Rx 0 00000106 s 8 00 C0 00 00 FF FF 00 C5 
22:20:16:192 Rx 0 0000048C s 1 00 
22:20:16:192 Rx 0 00000116 s 6 00 B0 F4 31 96 82 
22:20:16:192 Rx 0 00000102 s 6 21 96 D0 FF D0 FF 
22:20:16:192 Rx 0 000005BC s 8 0B 00 06 08 00 00 00 00 
22:20:16:192 Rx 0 0000079C s 8 0E 00 00 01 5D 56 6E 01 
22:20:16:192 Rx 0 0000020A s 8 00 01 01 82 C1 40 11 11 
22:20:16:202 Rx 0 0000000E s 8 20 6A 3F FF 08 FF B0 4F 
22:20:16:202 Rx 0 00000258 s 8 2F C8 36 D8 46 05 00 8F 
22:20:16:202 Rx 0 0000029C s 8 00 08 00 00 87 01 00 14 
22:20:16:202 Rx 0 00000108 s 4 00 00 0B 21 
22:20:16:202 Rx 0 00000288 s 8 00 00 00 00 00 1B 00 00 
22:20:16:202 Rx 0 00000278 s 8 02 24 40 00 04 00 20 90 
22:20:16:202 Rx 0 00000168 s 8 34 0D 1C 7F 00 00 B0 F2 
22:20:16:202 Rx 0 000001F8 s 8 01 EF F0 77 D4 B7 00 00 
22:20:16:202 Rx 0 000002A8 s 8 00 00 00 00 00 00 00 1B 
22:20:16:202 Rx 0 000002DC s 8 00 00 00 00 00 00 00 00 
22:20:16:202 Rx 0 00000228 s 4 40 C4 C0 AA 
22:20:16:202 Rx 0 000002DC s 8 00 00 00 00 00 00 00 00 
22:20:16:202 Rx 0 00000154 s 8 00 17 14 00 00 00 00 00 
22:20:16:202 Rx 0 00000358 s 8 04 07 50 01 F0 00 00 30 
22:20:16:202 Rx 0 00000106 s 8 00 E0 00 00 FF FF 00 E5 
22:20:16:202 Rx 0 00000116 s 6 00 B0 F4 31 97 83 
22:20:16:202 Rx 0 00000102 s 6 16 96 D0 FF 97 FF 
22:20:16:202 Rx 0 0000026A s 3 FA 01 00 
22:20:16:212 Rx 0 00000228 s 4 40 C4 D0 67 
22:20:16:212 Rx 0 00000278 s 8 02 24 40 00 04 00 30 A0 
22:20:16:212 Rx 0 00000228 s 4 40 C4 D0 67 
22:20:16:212 Rx 0 00000154 s 8 00 17 14 00 00 00 00 00 
22:20:16:212 Rx 0 00000106 s 8 00 00 00 00 FF FF 00 05 
22:20:16:212 Rx 0 00000116 s 6 00 B0 F4 31 98 84 
22:20:16:212 Rx 0 00000126 s 7 02 03 00 00 00 48 09 
22:20:16:212 Rx 0 00000102 s 6 0B 96 D4 FF 9A FF 
22:20:16:222 Rx 0 0000000E s 8 20 6A 3F FF 08 FF D0 DB 
22:20:16:222 Rx 0 00000288 s 8 00 00 00 00 00 1B 00 00 
22:20:16:222 Rx 0 00000108 s 4 00 00 0C 22 
22:20:16:222 Rx 0 00000106 s 8 00 20 00 00 FF FF 00 25 
22:20:16:222 Rx 0 00000168 s 8 32 0D 1C 7F 00 00 C0 00 
22:20:16:222 Rx 0 000001F8 s 8 01 EF F0 86 D3 C7 00 00 
22:20:16:222 Rx 0 000002A8 s 8 00 00 00 00 00 00 00 1B 
22:20:16:222 Rx 0 00000228 s 4 40 C4 E0 2D 
22:20:16:222 Rx 0 00000154 s 8 00 17 14 00 00 00 00 00 
22:20:16:222 Rx 0 00000754 s 8 65 FD FF 00 00 00 00 00 
22:20:16:222 Rx 0 00000368 s 8 00 5A 1F 00 00 08 00 FF 
22:20:16:222 Rx 0 00000116 s 6 00 B0 F4 31 99 85 
22:20:16:222 Rx 0 00000368 s 8 00 5A 1F 00 00 08 00 FF 
22:20:16:222 Rx 0 00000102 s 6 09 96 D9 FF 91 FF 
22:20:16:232 Rx 0 0000000E s 8 20 6A 3F FF 08 FF E0 91 
22:20:16:232 Rx 0 00000268 s 8 55 00 3C 02 BD 07 36 00 
22:20:16:232 Rx 0 0000062A s 8 A0 00 00 00 00 00 00 63 
22:20:16:232 Rx 0 0000020C s 8 00 00 00 00 00 00 F0 00 
22:20:16:232 Rx 0 0000022C s 8 00 00 18 8F 00 00 D6 CE 
22:20:16:232 Rx 0 0000024C s 8 AB 7D 00 00 00 00 00 00 
22:20:16:232 Rx 0 00000228 s 4 40 C8 F0 97 
22:20:16:232 Rx 0 00000116 s 6 00 B0 F4 41 9A 96 
22:20:16:232 Rx 0 00000278 s 8 02 24 40 00 04 00 50 C0 
22:20:16:232 Rx 0 0000040C s 1 00 
22:20:16:232 Rx 0 00000248 s 7 30 30 1D 8C 01 15 00 
22:20:16:232 Rx 0 00000154 s 8 00 17 14 00 00 00 00 00 
22:20:16:232 Rx 0 00000106 s 8 00 40 00 00 FF FF 00 45 
22:20:16:232 Rx 0 00000388 s 8 38 38 4C 47 5A 4E 00 00 
22:20:16:232 Rx 0 0000071C s 8 0C 00 00 00 00 00 00 F1 
22:20:16:232 Rx 0 0000071C s 8 0C 00 00 00 00 00 00 00 
22:20:16:232 Rx 0 00000754 s 8 67 00 15 00 00 00 00 00 
22:20:16:242 Rx 0 00000754 s 8 66 00 00 00 00 00 00 00 
22:20:16:242 Rx 0 00000754 s 8 64 00 00 00 00 00 00 00 
22:20:16:242 Rx 0 00000754 s 8 0A 00 00 00 00 00 00 00 
22:20:16:242 Rx 0 0000000E s 8 20 69 3F FF 08 FF F0 96 
22:20:16:242 Rx 0 0000020E s 8 88 10 00 13 BB 00 06 00 
22:20:16:242 Rx 0 00000108 s 4 00 00 F1 00 
22:20:16:242 Rx 0 00000108 s 4 00 00 0D 23 
22:20:16:242 Rx 0 00000168 s 8 33 0D 1C 7F 00 00 D0 11 
22:20:16:242 Rx 0 000001F8 s 8 01 EF F0 96 D3 D7 00 00 
22:20:16:242 Rx 0 000002A8 s 8 00 00 00 00 00 00 00 1B 
22:20:16:242 Rx 0 00000278 s 8 02 24 40 00 04 00 60 D0 
22:20:16:242 Rx 0 00000228 s 4 40 C8 00 E8 
22:20:16:242 Rx 0 000002C8 s 8 6E 80 03 7B 00 00 20 56 
22:20:16:242 Rx 0 00000116 s 6 00 B0 F4 41 9B 97 
22:20:16:242 Rx 0 00000106 s 8 00 60 00 00 FF FF 00 65 
22:20:16:242 Rx 0 00000116 s 6 00 B0 F4 41 9B 97 
22:20:16:242 Rx 0 00000102 s 6 24 96 DF FF CE FF 
22:20:16:252 Rx 0 0000000E s 8 20 69 3F FF 08 FF 00 E9 
22:20:16:252 Rx 0 00000278 s 8 02 24 40 00 04 00 70 E0 
22:20:16:252 Rx 0 00000228 s 4 40 C8 10 25 
