(166.000000) vcan0 21A#FE3612FE690507AD
(166.000000) vcan0 23A#0037001200000000
(166.000000) vcan0 28C#000000000000F000
(166.000000) vcan0 22A#67015E1D00000000
(166.000000) vcan0 27A#30300D8C091500
(166.000000) vcan0 29A#0136FE0000000000
(166.000000) vcan0 210#0000E31B1C86FF
(166.000000) vcan0 00E#206F3FFF08FF20E7
(166.000000) vcan0 228#40C030F8
(166.000000) vcan0 2AC#0F0033900000D6CE
(166.000000) vcan0 258#2FC836D84605008F
(166.000000) vcan0 2AC#0F0033900000D6CE
(166.000000) vcan0 2BC#3F4041787E640000
(166.000000) vcan0 106#00C00000FFFF00C5
(166.000000) vcan0 154#0407140000000000
(166.000000) vcan0 116#0010F4118EBA
(166.000000) vcan0 102#0996D6FFD6FF
(166.000000) vcan0 2CC#AB7D000000000000
(166.000000) vcan0 48C#00
(166.000000) vcan0 79C#0200400340032000
(166.000000) vcan0 2A2#00001196001070
(166.000000) vcan0 3A8#3030310003000000
(166.000000) vcan0 202#FD5E459DC4091E2D
(166.000000) vcan0 6F2#004E33D3DC343BCD
(166.000000) vcan0 212#D800127100
(166.000000) vcan0 00E#206F3FFF08FF302A
(166.000000) vcan0 222#00001196001070
(166.000000) vcan0 402#1000
(166.000000) vcan0 232#05246882
(166.000000) vcan0 228#40C040F1
(166.000000) vcan0 288#00000000001B0000
(166.000000) vcan0 108#00000F25
(166.000000) vcan0 168#A90C1C7F0000F0A6
(166.000000) vcan0 1F8#01EFF0B6D3F70000
(166.000000) vcan0 2A8#000000000000001B
(166.000000) vcan0 2DC#0000000000F10097
(166.000000) vcan0 2DC#0000000000000000
(166.000000) vcan0 358#04075001F0000030
(166.000000) vcan0 154#0407140000000000
(166.000000) vcan0 106#00E00000FFFF00E5
(166.000000) vcan0 116#0010F4118FBB
(166.000000) vcan0 102#1696D0FFCBFF
(166.000000) vcan0 26A#FA0100
(166.000000) vcan0 154#0407140000000000
(166.000000) vcan0 228#40C0506C
(166.000000) vcan0 154#0407140000000000
(166.000000) vcan0 106#00000000FFFF0005
(166.000000) vcan0 116#0010F41180AC
(166.000000) vcan0 102#FD95D1FF95FF
(166.000000) vcan0 126#02030000004809
(166.000000) vcan0 00E#206F3FFF08FF50BE
(166.000000) vcan0 288#00000000001B0000
(166.000000) vcan0 1F8#01EFF0C5D2F100DE
(166.000000) vcan0 102#0896D6FF99FF
(166.000000) vcan0 2A8#000000000000001B
(166.000000) vcan0 228#40C06026
(166.000000) vcan0 154#0407140000000000
(166.000000) vcan0 754#65FDFF0000000000
(166.000000) vcan0 106#00200000FFFF0025
(166.000000) vcan0 754#6700910000000000
(166.000000) vcan0 754#66000000000000F1
(166.000000) vcan0 754#6600000000000000
(166.000000) vcan0 754#6400000000000000
(166.000000) vcan0 368#005A1F00000800FF
(166.000000) vcan0 754#0A00000000000000
(166.000000) vcan0 268#55001D02BD073600
(166.000000) vcan0 00E#206F3FFF08FF60F4
(166.000000) vcan0 22C#0000198F0000D6CE
(166.000000) vcan0 106#00400000FFFF0045
(166.000000) vcan0 23C#3F4041787E640000
(166.000000) vcan0 228#40C070EB
(166.000000) vcan0 24C#AB7D000000000000
(166.000000) vcan0 40C#00
(166.000000) vcan0 71C#1500859B00000000
(166.000000) vcan0 154#0407140000000000
(166.000000) vcan0 102#FD95DCFF95FF
(166.000000) vcan0 116#0010F41182AE
(166.000000) vcan0 102#FD95DCFF95FF
(166.000000) vcan0 00E#206F3FFF08FF7039
(166.000000) vcan0 20E#88100013BB000600
(166.000000) vcan0 32E#00000000
(166.000000) vcan0 40E#00
(166.000000) vcan0 288#00000000001B0000
(166.000000) vcan0 108#00000117
(166.000000) vcan0 2A8#000000000000001B
(166.000000) vcan0 1F8#01EFF0D6D3170000
(166.000000) vcan0 2A8#000000000000001B
(166.000000) vcan0 228#40C08094
(166.000000) vcan0 154#0407140000000000
(166.000000) vcan0 106#00600000FFFF0065
(166.000000) vcan0 116#0010F41183AF
(166.000000) vcan0 2C8#6E80037B00006096
(166.000000) vcan0 102#0A96E1FF9BFF
(166.000000) vcan0 00E#206F3FFF08FF8046
(166.000000) vcan0 3D8#860600
(166.000000) vcan0 408#80
(166.000000) vcan0 228#40C09059
(166.000000) vcan0 154#0407140000000000
(166.000000) vcan0 106#00800000FFFF0085
(166.000000) vcan0 116#0010F41184B0
(166.000000) vcan0 102#0A96E0FFD3FF
(166.000000) vcan0 108#00000218
(166.000000) vcan0 288#00000000001B0000
(166.000000) vcan0 106#00A00000FFF10018
(166.000000) vcan0 168#A90C1C7F000020D6
(166.000000) vcan0 1F8#01EFF0E6D3270000
(166.000000) vcan0 2A8#000000000000001B
(166.000000) vcan0 228#40C0A013
(166.000000) vcan0 154#0407140000000000
(166.000000) vcan0 116#0010F41185B1
(166.000000) vcan0 256#810200300060006B
(166.000000) vcan0 116#0010F41185B1
(166.000000) vcan0 102#2196D9FFD3FF
(166.000000) vcan0 266#8504000000700A4B
(166.000000) vcan0 00E#206F3FFF08FFA0C1
(166.000000) vcan0 21C#0008000086010014
(166.000000) vcan0 25C#0102269A05004D04
(166.000000) vcan0 228#40C0B0DE
(166.000000) vcan0 116#0010F41186B2
(166.000000) vcan0 154#0407140000000000
(166.000000) vcan0 116#0010F41186B2
(166.000000) vcan0 238#00FF00000000A1BF
(166.000000) vcan0 102#1696D1FFD1FF
(166.000000) vcan0 218#7D04FF07FF0000BD
(166.000000) vcan0 00E#206F3FFF08FFB00C
(166.000000) vcan0 28A#0A00FF1F00010000
(166.000000) vcan0 3CA#0000000000000000
(166.000000) vcan0 168#A80C1C7F000030E5
(166.000000) vcan0 108#00000319
(166.000000) vcan0 125#FF03330B
(166.000000) vcan0 1F8#01EFF0F6D3370000
(166.000000) vcan0 2A8#000000000000001B
(166.000000) vcan0 228#40C0C087
(166.000000) vcan0 154#0407140000000000
(166.000000) vcan0 106#00E00000FFFF00E5
(166.000000) vcan0 116#0010F41187B3
(166.000000) vcan0 102#1696D2FFA2F1
(166.000000) vcan0 102#1696D2FFA2FF
(166.000000) vcan0 25A#0000000000000000
(166.000000) vcan0 23A#0038001200000000
(166.000000) vcan0 21A#FE3612FE690507AD
(166.000000) vcan0 22A#67015E1D00000000
(166.000000) vcan0 27A#30300D8C091500
(166.000000) vcan0 29A#0136FE0000000000
(166.000000) vcan0 228#40C0D04A
(166.000000) vcan0 00E#206F3FFF08FFC055
(166.000000) vcan0 116#0010F41188F1
(166.000000) vcan0 258#2FC836D84605008F
(166.000000) vcan0 28C#000000000000F000
(166.000000) vcan0 2AC#0D002E900000D6CE
(166.000000) vcan0 106#00000000FFFF0005
(166.000000) vcan0 154#0407140000000000
(166.000000) vcan0 2BC#3F4041787E6400F1
(166.000000) vcan0 2BC#3F4041787E640000
(166.000000) vcan0 2CC#AB7D000000000000
(166.000000) vcan0 48C#00
(166.000000) vcan0 59C#01000000FE000009
(166.000000) vcan0 20A#00010182113F1111
(166.000000) vcan0 79C#0300000000000000
(166.000000) vcan0 202#FD5E459DC4091E2D
(166.000000) vcan0 00E#206F3FFF08FFD098
(166.000000) vcan0 212#D800127100
(166.000000) vcan0 00E#206F3FFF08FFD098
(166.000000) vcan0 222#00001496001070
(166.000000) vcan0 51A#4309000000000000
(166.000000) vcan0 2A2#00001496001070
(166.000000) vcan0 3A8#3030310003000000
(166.000000) vcan0 232#00246882
(166.000000) vcan0 308#E9EB1011B9300000
(166.000000) vcan0 328#8A8A8C0200F1000A
(166.000000) vcan0 328#8A8A8C0200000000
(166.000000) vcan0 168#A90C1C7F000040F6
(166.000000) vcan0 1F8#01EFF006D3470000
(166.000000) vcan0 2A8#000000000000001B
(166.000000) vcan0 3F8#A4029A0292029602
(166.000000) vcan0 402#1000
(166.000000) vcan0 318#7B787F1462000000
(166.000000) vcan0 29C#0008000087010014
(166.000000) vcan0 228#40C0E000
(166.000000) vcan0 29C#0008000087010014
(166.000000) vcan0 2DC#0000000000000000
(166.000000) vcan0 358#04075001F0000030
(166.000000) vcan0 154#0407140000000000
(166.000000) vcan0 106#00200000FFFF0025
(166.000000) vcan0 3FC#0000000000000000
(166.000000) vcan0 116#0010F41189B5
(166.000000) vcan0 26A#FA0100
(166.000000) vcan0 00E#206F3FFF08FFE0D2
(166.000000) vcan0 228#40C0F0CD
(166.000000) vcan0 3CC#0000000000000000
(166.000000) vcan0 154#0407140000000000
(166.000000) vcan0 106#00400000FFFF0045
(166.000000) vcan0 116#0010F4118AB6
(166.000000) vcan0 102#1696E0FF99FF
(166.000000) vcan0 126#02030000004809
(166.000000) vcan0 108#0000051B
(166.000000) vcan0 288#00000000001B0000
(166.000000) vcan0 154#0407140000F10078
(166.000000) vcan0 1F8#01EFF016D3570000
(166.000000) vcan0 2A8#000000000000001B
(166.000000) vcan0 368#005A1F00000800FF
(166.000000) vcan0 228#40C000B2
(166.000000) vcan0 3DC#0000000000000000
(166.000000) vcan0 754#65FDFF0000000000
(166.000000) vcan0 106#00600000FFFF0065
(166.000000) vcan0 754#65FDFF0000000000
(166.000000) vcan0 116#0010F4118BB7
(166.000000) vcan0 102#1596E1FFBBFF
(166.000000) vcan0 754#6700910000000000
(166.000000) vcan0 754#6600000000000000
(166.000000) vcan0 754#6400000000000000
(166.000000) vcan0 754#0A00000000000000
(166.000000) vcan0 20C#000000000000F000
(166.000000) vcan0 00E#206F3FFF08FF0060
(166.000000) vcan0 40C#00
(166.000000) vcan0 22C#00002F8F0000D6CE
(166.000000) vcan0 23C#3F4041787E640000
(166.000000) vcan0 228#40C0107F
(166.000000) vcan0 248#30301D8C011500
(166.000000) vcan0 24C#AB7D000000000000
(166.000000) vcan0 3AC#0000000000000000
(166.000000) vcan0 106#0080F1001413E809
(166.000000) vcan0 106#00800000FFFF0085
(166.000000) vcan0 71C#1600000000000000
(166.000000) vcan0 116#0010F4118CB8
(166.000000) vcan0 102#2196DDFFD4FF
(166.000000) vcan0 00E#206F3FFF08FF10AD
(166.000000) vcan0 20E#88100013BB000600
(166.000000) vcan0 33E#0000000000000000
(166.000000) vcan0 108#0000F100
(166.000000) vcan0 106#00A00000FFF100BA
(166.000000) vcan0 1F8#01EFF026D3670000
(166.000000) vcan0 2A8#000000000000001B
(166.000000) vcan0 228#40C02035
(166.000000) vcan0 3BC#0055555501000000
(166.000000) vcan0 154#0407140000000000
(166.000000) vcan0 2C8#6E80037B000070A6
(166.000000) vcan0 116#0010F4118DB9
(166.000000) vcan0 2C8#6E80037B000070A6
(166.000000) vcan0 102#2196D6FFD0FF
(166.000000) vcan0 00E#206F3FFF08FF20E7
(166.000000) vcan0 228#40C030F8
(166.000000) vcan0 154#0407140000000000
(166.000000) vcan0 106#00C00000FFFF00C5
(166.000000) vcan0 116#0010F4118EBA
(166.000000) vcan0 408#90
(166.000000) vcan0 3D8#860600
(166.000000) vcan0 408#90
(166.000000) vcan0 00E#206F3FFF08FF302A
(166.000000) vcan0 278#12004002040070CE
(166.000000) vcan0 288#00000000001B0000
(166.000000) vcan0 108#0000071D
(166.000000) vcan0 168#A90C1C7F00007026
(166.000000) vcan0 1F8#01EFF035D2770000
(166.000000) vcan0 154#0407140000000000
(166.000000) vcan0 228#40C040A1
(166.000000) vcan0 154#0407140000000000
(166.000000) vcan0 106#00E00000FFFF00E5
(166.000000) vcan0 256#810200300070007B
(166.000000) vcan0 116#0010F4118FBB
(166.000000) vcan0 102#0896D2FF9CFF
(166.000000) vcan0 266#8504000000700A4B
(166.000000) vcan0 00E#206F3FFF08FF4073
(166.000000) vcan0 25C#0102269A69005304
(166.000000) vcan0 228#40C0506C
(166.000000) vcan0 25C#0102269A69005304
(166.000000) vcan0 238#00FF00000000B172
(166.000000) vcan0 154#0407140000000000
(166.000000) vcan0 106#00000000FFFF0005
(166.000000) vcan0 116#0010F41180AC
(166.000000) vcan0 102#2396D8FF9CFF
(166.000000) vcan0 338#D600F70027015454
(166.000000) vcan0 30A#00017CB302410017
(166.000000) vcan0 28A#0A00FF1F00010000
(166.000000) vcan0 1F8#01EFF046D3870000
(166.000000) vcan0 3EA#01000000FE000008
(166.000000) vcan0 65A#0D000000D3640000
(166.000000) vcan0 288#00000000001B0000
(166.000000) vcan0 108#0000081E
(166.000000) vcan0 48A#0000000000000000
(166.000000) vcan0 168#A90C1C7F00008036
(166.000000) vcan0 228#40C06026
(166.000000) vcan0 2A8#000000000000001B
(166.000000) vcan0 228#40C06026
(166.000000) vcan0 125#FF02330C
(166.000000) vcan0 138#001C520000
(166.000000) vcan0 154#0417140000000000
(166.000000) vcan0 106#00200000FFFF0025
(166.000000) vcan0 116#0090F411913D
(166.000000) vcan0 102#0A96DDFF9EFF
(166.000000) vcan0 21A#FE3612FE690507AD
(166.000000) vcan0 23A#0038001200000000
(166.000000) vcan0 228#40C070EB
(166.000000) vcan0 22A#67015E1D00000000
(166.000000) vcan0 27A#30300D8C091500
(166.000000) vcan0 24A#FEFEFEFEFEFEFE14
(166.000000) vcan0 29A#0136FE0000000000
(166.000000) vcan0 210#0000E31B1D86FF
(166.000000) vcan0 00E#206E3FFF08FF60B2
(166.000000) vcan0 2AC#1100239000F1004D
(166.000000) vcan0 48C#00
(166.000000) vcan0 2BC#3F4041787E640000
(166.000000) vcan0 154#0417140000000000
(166.000000) vcan0 106#00400000FFFF0045
(166.000000) vcan0 2CC#AB7D000000000000
(166.000000) vcan0 116#0090F411923E
(166.000000) vcan0 102#0A96E1FF9EFF
(166.000000) vcan0 48C#00
(166.000000) vcan0 5BC#0A01120009000600
(166.000000) vcan0 79C#0400000000000000
(166.000000) vcan0 20A#00010182213F1111
(166.000000) vcan0 3A8#3030310003000000
(166.000000) vcan0 258#2FC836D84605008F
(166.000000) vcan0 202#FD5E459DC4091E2D
(166.000000) vcan0 6F2#0245F3D08C342FCD
(166.000000) vcan0 212#D800127100
(166.000000) vcan0 2A2#00001196001070
(166.000000) vcan0 222#00001196001070
(166.000000) vcan0 1F8#01EFF056D3970000
(166.000000) vcan0 402#1000
(166.000000) vcan0 3A2#FF0FFF0F00000032
(166.000000) vcan0 288#00000000001B0000
(166.000000) vcan0 108#0000091F
(166.000000) vcan0 168#A80C1C7F00009045
(166.000000) vcan0 358#04075001F0000030
(166.000000) vcan0 2A8#000000000000001B
(166.000000) vcan0 358#04075001F0000030
(166.000000) vcan0 228#40C08094
(166.000000) vcan0 29C#0008000087010014
(166.000000) vcan0 2DC#0000000000000000
(166.000000) vcan0 154#0417140000000000
(166.000000) vcan0 106#00600000FFFF0065
(166.000000) vcan0 116#0090F411933F
(166.000000) vcan0 102#1596DFFFD1FF
(166.000000) vcan0 26A#FA0100
(166.000000) vcan0 00E#206E3FFF08FF8000
(166.000000) vcan0 228#40C09059
(166.000000) vcan0 154#0417140000000000
(166.000000) vcan0 106#00800000FFFF0085
(166.000000) vcan0 116#0090F4119440
(166.000000) vcan0 126#02030000004809
(166.000000) vcan0 102#2196D8FFD3FF
(166.000000) vcan0 108#00000A20
(166.000000) vcan0 288#00000000001B0000
(166.000000) vcan0 154#0417140000F10018
(166.000000) vcan0 1F8#01EFF066D3A70000
(166.000000) vcan0 2A8#000000000000001B
(166.000000) vcan0 368#005A1F00000800FF
(166.000000) vcan0 228#40C0A013
(166.000000) vcan0 106#00A00000FFFF00A5
(166.000000) vcan0 754#65FDFF0000000000
(166.000000) vcan0 116#0090F4119541
(166.000000) vcan0 754#65FDFF0000000000
(166.000000) vcan0 102#2096D0FFD0FF
(166.000000) vcan0 754#6700950000000000
(166.000000) vcan0 754#6600000000000000
(166.000000) vcan0 754#6400000000000000
(166.000000) vcan0 754#0A00000000000000
(166.000000) vcan0 268#55001D02BD073600
(166.000000) vcan0 388#38384C475A4E0000
(166.000000) vcan0 62A#A000000000000063
(166.000000) vcan0 40C#00
(166.000000) vcan0 20C#000000000000F000
(166.000000) vcan0 22C#00001B8F0000D6CE
(166.000000) vcan0 23C#3F4041787E640000
(166.000000) vcan0 228#40C0B0DE
(166.000000) vcan0 248#30301D8C011500
(166.000000) vcan0 24C#AB7D000000000000
(166.000000) vcan0 154#0417F100DA99E909
(166.000000) vcan0 154#0417140000000000
(166.000000) vcan0 106#00C00000FFFF00C5
(166.000000) vcan0 116#0090F4119642
(166.000000) vcan0 102#1496D0FF96FF
(166.000000) vcan0 00E#206D3FFF08FFB080
(166.000000) vcan0 20E#88100013BB000600
(166.000000) vcan0 40E#00
(166.000000) vcan0 168#A90C1C7F0000B066
(166.000000) vcan0 108#00000B21
(166.000000) vcan0 168#A90C1C7F0000B066
(166.000000) vcan0 1F8#01EFF076D3B70000
(166.000000) vcan0 2A8#000000000000001B
(166.000000) vcan0 228#40C0C087
(166.000000) vcan0 106#00E00000FFFF00E5
(166.000000) vcan0 154#0417140000000000
(166.000000) vcan0 116#0090F4119743
(166.000000) vcan0 2C8#6E80037B000080B6
(166.000000) vcan0 102#0796D2FF9BFF
(166.000000) vcan0 00E#206D3FFF08FFC0D9
(166.000000) vcan0 3D8#860600
(166.000000) vcan0 408#A0
(166.000000) vcan0 228#40C0D04A
(166.000000) vcan0 154#0417140000000000
(166.000000) vcan0 106#00000000FFFF0005
(166.000000) vcan0 116#0090F4119844
(166.000000) vcan0 102#0996D8FF9AFF
(166.000000) vcan0 00E#206C3FFF08FFD052
(166.000000) vcan0 106#00200000FFF1004C
(166.000000) vcan0 288#00000000001B0000
(166.000000) vcan0 168#AC0C1C7F0000C079
(166.000000) vcan0 1F8#01EFF086D3C70000
(166.000000) vcan0 2A8#000000000000001B
(166.000000) vcan0 228#40C0E000
(166.000000) vcan0 256#810200300080008B
(166.000000) vcan0 154#0417140000000000
(166.000000) vcan0 256#810200300080008B
(166.000000) vcan0 116#0090F4119945
(166.000000) vcan0 102#0A96E1FF97FF
(166.000000) vcan0 266#8504000000700A4B
(166.000000) vcan0 00E#206C3FFF08FFE018
(166.000000) vcan0 21C#0008000086010014
(166.000000) vcan0 228#40C0F0CD
(166.000000) vcan0 154#0417140000000000
(166.000000) vcan0 238#00FF00000000C12B
(166.000000) vcan0 154#0417140000000000
(166.000000) vcan0 106#00400000FFFF0045
(166.000000) vcan0 116#0090F4119A46
(166.000000) vcan0 102#1596E1FFC8FF
(166.000000) vcan0 00E#206B3FFF08FFF01A
(166.000000) vcan0 28A#0A00FF1F00010000
(166.000000) vcan0 31A#FADDFFA3F529FF87
(166.000000) vcan0 108#00000D23
(166.000000) vcan0 288#00000000001B0000
(166.000000) vcan0 154#0417140000F1009D
(166.000000) vcan0 1F8#01EFF096D3D70000
(166.000000) vcan0 5B8#002A841403000000
(166.000000) vcan0 228#40C000B2
(166.000000) vcan0 2A8#000000000000001B
(166.000000) vcan0 106#00600000FFFF0065
(166.000000) vcan0 102#2396DAFFD0FF
(166.000000) vcan0 116#0090F4119B47
(166.000000) vcan0 102#2396DAFFD0FF
(166.000000) vcan0 125#FF02340D
(166.000000) vcan0 138#001D530000
(166.000000) vcan0 25A#0000000000000000
(166.000000) vcan0 23A#0038001200000000
(166.000000) vcan0 21A#FE3612FE690507AD
(166.000000) vcan0 22A#67015E1D00000000
(166.000000) vcan0 210#0000E31D1F86FF
(166.000000) vcan0 29A#0136FE0000000000
(166.000000) vcan0 106#00800000FFFF0085
(166.000000) vcan0 228#40C0107F
(166.000000) vcan0 28C#000000000000F000
(166.000000) vcan0 2AC#13002C900000D6CE
(166.000000) vcan0 2BC#3F4041787E640000
(166.000000) vcan0 154#0417140000000000
(166.000000) vcan0 106#00800000FFFF0085
(166.000000) vcan0 2CC#AB7D000000000000
(166.000000) vcan0 116#0090F4119C48
(166.000000) vcan0 102#2496D3FFCFFF
(166.000000) vcan0 3A8#3030310003000000
(166.000000) vcan0 48C#00
(166.000000) vcan0 258#2FC836D84605008F
(166.000000) vcan0 20A#0001018231401111
(166.000000) vcan0 79C#0500000000000000
(166.000000) vcan0 212#D800127100
(166.000000) vcan0 6F2#034C33D3DC3437CD
(166.000000) vcan0 288#00000000001BF100
(166.000000) vcan0 222#00001696001070
(166.000000) vcan0 2A2#00001696001070
(166.000000) vcan0 232#05246882
(166.000000) vcan0 402#1000
(166.000000) vcan0 3A2#FF0FFF0F00000032
(166.000000) vcan0 168#AE0C1C7F0000E09B
(166.000000) vcan0 108#00000E24
(166.000000) vcan0 168#AE0C1C7F0000E09B
(166.000000) vcan0 1F8#01EFF0A5D2E70000
(166.000000) vcan0 2A8#000000000000001B
(166.000000) vcan0 228#40C02035
(166.000000) vcan0 29C#0008000087010014
(166.000000) vcan0 2DC#0000000000000000
(166.000000) vcan0 358#04075001F0000030
(166.000000) vcan0 116#0090F4119D49
(166.000000) vcan0 106#00A00000FFFF00A5
(166.000000) vcan0 116#0090F4119D49
(166.000000) vcan0 102#0B96CFFFC6FF
(166.000000) vcan0 26A#FA0100
(166.000000) vcan0 00E#206A3FFF08FF20A4
(166.000000) vcan0 228#40C030F8
(166.000000) vcan0 154#0417140000000000
(166.000000) vcan0 106#00C00000FFFF00C5
(166.000000) vcan0 102#1696D2FF97FF
(166.000000) vcan0 126#02030000004809
(166.000000) vcan0 102#1696D2FF97FF
(166.000000) vcan0 5E8#000000000000
(166.000000) vcan0 00E#206A3FFF08FF3069
(166.000000) vcan0 288#00000000001B0000
(166.000000) vcan0 108#00000F25
(166.000000) vcan0 168#B00C1C7F0000F0AD
(166.000000) vcan0 1F8#01EFF0B5D2F70000
(166.000000) vcan0 154#0417140000000000
(166.000000) vcan0 228#40C040A1
(166.000000) vcan0 154#0417140000000000
(166.000000) vcan0 106#00E00000FFFF00E5
(166.000000) vcan0 754#65FDFF0000000000
(166.000000) vcan0 116#0090F4119F4B
(166.000000) vcan0 102#0996D6FF93FF
(166.000000) vcan0 754#6700950000000000
(166.000000) vcan0 368#005A1F00000800FF
(166.000000) vcan0 754#0A00000000000000
(166.000000) vcan0 754#6400000000000000
(166.000000) vcan0 228#40C0506C
(166.000000) vcan0 268#55003C02BD073600
(166.000000) vcan0 00E#206A3FFF08FF4030
(166.000000) vcan0 36C#0000000000000000
(166.000000) vcan0 20C#000000000000F000
(166.000000) vcan0 22C#0000178F0000D6CE
(166.000000) vcan0 23C#3F4041787E640000
(166.000000) vcan0 398#5553000000F10030
(166.000000) vcan0 116#0090F411903C
(166.000000) vcan0 40C#00
(166.000000) vcan0 154#0417140000000000
(166.000000) vcan0 248#30301D8C011500
(166.000000) vcan0 106#00000000FFFF0005
(166.000000) vcan0 51C#01000000FE000009
(166.000000) vcan0 102#1696DCFF98FF
(166.000000) vcan0 116#0090F411903C
(166.000000) vcan0 71C#0300000000000000
(166.000000) vcan0 2A8#000000000000001B
(166.000000) vcan0 20E#88100013BB000600
(166.000000) vcan0 40E#00
(166.000000) vcan0 288#00000000001B0000
(166.000000) vcan0 108#00000016
(166.000000) vcan0 168#B10C1C7F000000BE
(166.000000) vcan0 1F8#01EFF0C6D3070000
(166.000000) vcan0 2C8#6E80037B000090C6
(166.000000) vcan0 37C#0000000000000000
(166.000000) vcan0 2C8#6E80037B000090C6
(166.000000) vcan0 228#40C06026
(166.000000) vcan0 154#0417140000000000
(166.000000) vcan0 106#00200000FFFF0025
(166.000000) vcan0 116#0090F411913D
(166.000000) vcan0 102#0996E1FF9EFF
(166.000000) vcan0 00E#206A3FFF08FF60B7
(166.000000) vcan0 228#40C070EB
(166.000000) vcan0 3D8#860600
(166.000000) vcan0 228#40C070EB
(166.000000) vcan0 408#B0
(166.000000) vcan0 154#0417140000000000
(166.000000) vcan0 106#00400000FFFF0045
(166.000000) vcan0 116#0090F411923E
(166.000000) vcan0 102#2496DEFFD0FF
(166.000000) vcan0 00E#206A3FFF08FF707A
(166.000000) vcan0 108#00000117
(166.000000) vcan0 288#00000000001B0000
(166.000000) vcan0 106#00600000FFF10004
(166.000000) vcan0 1F8#01EFF0D6D3170000
(166.000000) vcan0 2A8#000000000000001B
(166.000000) vcan0 35C#0000000000000000
(166.000000) vcan0 228#40C08094
(166.000000) vcan0 154#0417140000000000
(166.000000) vcan0 116#0090F411933F
(166.000000) vcan0 256#810200300090009B
(166.000000) vcan0 116#0090F411933F
(166.000000) vcan0 102#2E96D8FFCFFF
(166.000000) vcan0 266#8504000000700A4B
(166.000000) vcan0 00E#206B3FFF08FF8043
(166.000000) vcan0 32C#0000000000000000
(166.000000) vcan0 21C#0008000086010014
(166.000000) vcan0 228#40C09059
(166.000000) vcan0 106#00800000FFFF0085
(166.000000) vcan0 154#0417140000000000
(166.000000) vcan0 106#00800000FFFF0085
(166.000000) vcan0 116#0090F4119440
(166.000000) vcan0 102#2396D0FFCCFF
(166.000000) vcan0 238#00FF00000000D1E6
(166.000000) vcan0 00E#206B3FFF08FF908E
(166.000000) vcan0 28A#0A00FF1F00010000
(166.000000) vcan0 32A#1717120064001B00
(166.000000) vcan0 108#00000218
(166.000000) vcan0 288#00000000001B0000
(166.000000) vcan0 138#001E540000
(166.000000) vcan0 1F8#01EFF0E6D3270000
(166.000000) vcan0 2A8#000000000000001B
(166.000000) vcan0 33C#0055555501000000
(166.000000) vcan0 228#40C0A013
(166.000000) vcan0 125#FF02350E
(166.000000) vcan0 106#00A00000FFFFF100
(166.000000) vcan0 106#00A00000FFFF00A5
(166.000000) vcan0 116#0090F4119541
(166.000000) vcan0 102#0A96D0FF95FF
(166.000000) vcan0 25A#0000000000000000
(166.000000) vcan0 23A#0038001200000000
(166.000000) vcan0 21A#FE3613FE690507AD
(166.000000) vcan0 22A#67015E1D00000000
(166.000000) vcan0 210#0000E31D1F86FF
(166.000000) vcan0 29A#0136FE0000000000
(166.000000) vcan0 154#0417140000000000
(166.000000) vcan0 228#40C0B0DE
(166.000000) vcan0 28C#000000000000F000
(166.000000) vcan0 2AC#0C0028900000D6CE
(166.000000) vcan0 2BC#3F4041787E640000
(166.000000) vcan0 106#00C00000FFFF00C5
(166.000000) vcan0 2CC#AB7D000000000000
(166.000000) vcan0 116#0090F4119642
(166.000000) vcan0 2CC#AB7D000000000000
(166.000000) vcan0 102#0896D4FF96FF
(166.000000) vcan0 3A8#3030310003000000
(166.000000) vcan0 48C#00
(166.000000) vcan0 258#2FC836D84605008F
(166.000000) vcan0 20A#0001018241401111
(166.000000) vcan0 79C#0600480004000040
(166.000000) vcan0 212#D800127100
(166.000000) vcan0 6F2#044DB3D3FC342BCD
(166.000000) vcan0 288#00000000001BF100
(166.000000) vcan0 222#00001396001070
(166.000000) vcan0 2A2#00001396001070
(166.000000) vcan0 232#05246882
(166.000000) vcan0 402#1000
(166.000000) vcan0 3A2#FF0FFF0F00000032
(166.000000) vcan0 168#B50C1C7F000030F2
(166.000000) vcan0 108#00000319
(166.000000) vcan0 168#B50C1C7F000030F2
(166.000000) vcan0 1F8#01EFF0F6D3370000
(166.000000) vcan0 2A8#000000000000001B
(166.000000) vcan0 358#04075001F0000030
(166.000000) vcan0 228#40C0C087
(166.000000) vcan0 29C#0008000087010014
(166.000000) vcan0 2DC#0000000000000000
(166.000000) vcan0 154#0417140000000000
(166.000000) vcan0 106#00E00000FFFF00E5
(166.000000) vcan0 116#0090F4119743
(166.000000) vcan0 102#0996D9FF98FF
(166.000000) vcan0 26A#FA0100
(166.000000) vcan0 00E#206B3FFF08FFC050
(166.000000) vcan0 228#40C0D04A
(166.000000) vcan0 106#00000000FFFF0005
(166.000000) vcan0 154#0417140000000000
(166.000000) vcan0 102#1696E1FF96FF
(166.000000) vcan0 126#02030000004809
(166.000000) vcan0 102#1696E1FF96FF
(166.000000) vcan0 00E#206B3FFF08FFD09D
(166.000000) vcan0 288#00000000001B0000
(166.000000) vcan0 108#0000041A
(166.000000) vcan0 168#B60C1C7F00004003
(166.000000) vcan0 1F8#01EFF007D4470000
(166.000000) vcan0 2A8#000000000000001B
(166.000000) vcan0 754#65FDFF0000F10088
(166.000000) vcan0 754#65FDFF0000000000
(166.000000) vcan0 106#00200000FFFF0025
(166.000000) vcan0 116#0090F4119945
(166.000000) vcan0 102#1596DFFFCDFF
(166.000000) vcan0 368#005A1F00000800FF
(166.000000) vcan0 00E#206B3FFF08FFE0D7
(166.000000) vcan0 268#55001D02BD073600
(166.000000) vcan0 23C#3F4041787E640000
(166.000000) vcan0 22C#0000168F0000D6CE
(166.000000) vcan0 154#0417140000000000
(166.000000) vcan0 228#40C0F0CD
(166.000000) vcan0 24C#AB7D000000000000
(166.000000) vcan0 40C#00
(166.000000) vcan0 53C#0A01120009000600
(166.000000) vcan0 71C#0400000000000000
(166.000000) vcan0 106#00400000FFFF0045
(166.000000) vcan0 248#30301D8C011500
(166.000000) vcan0 116#0090F4119A46
(166.000000) vcan0 248#30301D8C011500
(166.000000) vcan0 102#1596DAFFD0FF
(166.000000) vcan0 754#6700950000000000
(166.000000) vcan0 754#6600000000000000
(166.000000) vcan0 754#6400000000000000
(166.000000) vcan0 754#0A00000000000000
(166.000000) vcan0 00E#206B3FFF08FFF01A
(166.000000) vcan0 288#00000000001B0000
(166.000000) vcan0 40E#00
(166.000000) vcan0 106#00600000FFFF0065
(166.000000) vcan0 108#0000051B
(166.000000) vcan0 168#B70C1C7F00005014
(166.000000) vcan0 1F8#01EFF016D3570000
(166.000000) vcan0 2A8#000000000000001B
(166.000000) vcan0 228#40C000B2
(166.000000) vcan0 154#0417140000000000
(166.000000) vcan0 2C8#6E80037B0000A0D6
(166.000000) vcan0 116#0090F4119B47
(166.000000) vcan0 2C8#6E80037B0000A0D6
(166.000000) vcan0 102#2196D3FFCEFF
(166.000000) vcan0 00E#206B3FFF08FF0065
(166.000000) vcan0 3D8#860600
(166.000000) vcan0 408#C0
(166.000000) vcan0 228#40C0107F
(166.000000) vcan0 106#00800000FFFF0085
(166.000000) vcan0 512#01000000FE00001F
(166.000000) vcan0 116#0090F4119C48
(166.000000) vcan0 512#01000000FE00001F
(166.000000) vcan0 102#0796D0FFC0FF
(166.000000) vcan0 302#604B0D
(166.000000) vcan0 342#0000000000000000
(166.000000) vcan0 382#EDF609289F00A024
(166.000000) vcan0 352#0000000000000000
(166.000000) vcan0 312#000019343230ED27
(166.000000) vcan0 362#0000000000000000
(166.000000) vcan0 332#D507857ED277897C
(166.000000) vcan0 3F2#EF95FF71FF51
(166.000000) vcan0 522#000000000018FC00
(166.000000) vcan0 372#0000000000000000
(166.000000) vcan0 3D2#7CF84F0033075400
(166.000000) vcan0 3C2#0000000000000000
(166.000000) vcan0 242#0000000000000000
(166.000000) vcan0 3E2#0000000000000000
(166.000000) vcan0 412#080AC7566A00
(166.000000) vcan0 322#0000000000000000
(166.000000) vcan0 412#080AC7566A00
(166.000000) vcan0 00E#206B3FFF08FF10A8
(166.000000) vcan0 7E2#4E00000000000000
(166.000000) vcan0 288#00000000001B0000
(166.000000) vcan0 108#0000061C
(166.000000) vcan0 168#B80C1C7F00006025
(166.000000) vcan0 1F8#01EFF025D2670000
(166.000000) vcan0 154#0417140000000000
(166.000000) vcan0 228#40C02035
(166.000000) vcan0 154#0417140000000000
(166.000000) vcan0 106#00A00000FFFF00A5
(166.000000) vcan0 256#8102003000A000AB
(166.000000) vcan0 116#0090F4119D49
(166.000000) vcan0 266#8504000000700A4B
(166.000000) vcan0 102#0796D2FF91FF
(166.000000) vcan0 278#120040020400A0FE
(166.000000) vcan0 228#40C030F8
(166.000000) vcan0 21C#0008000086010014
(166.000000) vcan0 228#40C030F8
(166.000000) vcan0 238#00FF00000000E1AC
(166.000000) vcan0 25C#0102269A15006604
(166.000000) vcan0 154#0417140000000000
(166.000000) vcan0 106#00C00000FFFF00C5
(166.000000) vcan0 116#0090F4119E4A
(166.000000) vcan0 102#1496D6FF94FF
(166.000000) vcan0 33A#6B92FF7F00001111
(166.000000) vcan0 28A#0A00FF1F00010000
(166.000000) vcan0 228#40C040A1
(166.000000) vcan0 4BA#0000000000000000
(166.000000) vcan0 288#00000000001B0000
(166.000000) vcan0 108#0000071D
(166.000000) vcan0 168#BA0C1C7F00007037
(166.000000) vcan0 1F8#01EFF035D2770000
(166.000000) vcan0 2A8#000000000000001B
(166.000000) vcan0 106#00E00000FFF10017
(166.000000) vcan0 106#00E00000FFFF00E5
(166.000000) vcan0 116#0090F4119F4B
(166.000000) vcan0 102#0796DEFF9AFF
(166.000000) vcan0 25A#0000000000000000
(166.000000) vcan0 125#FF02360F
(166.000000) vcan0 23A#0038001200000000
(166.000000) vcan0 138#001F550000
(166.000000) vcan0 27A#30300D8C091500
(166.000000) vcan0 21A#FE3612FE690507AD
(166.000000) vcan0 27A#30300D8C091500
(166.000000) vcan0 22A#67015E1D00000000
(166.000000) vcan0 210#0000E31D1E86FF
(166.000000) vcan0 00E#206B3FFF08FF4076
(166.000000) vcan0 228#40C0506C
(166.000000) vcan0 28C#000000000000F000
(166.000000) vcan0 2AC#0D0026900000D6CE
(166.000000) vcan0 106#00000000FFFF0005
(166.000000) vcan0 154#0417140000000000
(166.000000) vcan0 106#00000000FFFF0005
(166.000000) vcan0 2CC#AB7D000000000000
(166.000000) vcan0 102#1496E2FFA2FF
(166.000000) vcan0 116#0090F411903C
(166.000000) vcan0 3A8#3030310003000000
(166.000000) vcan0 48C#00
(166.000000) vcan0 258#2FC836D84605008F
(166.000000) vcan0 202#FD5E459DC4091E2D
(166.000000) vcan0 79C#070000000004A300
(166.000000) vcan0 202#FD5E459DC4091E2D
(166.000000) vcan0 6F2#054C33D3EC3437CD
(166.000000) vcan0 212#D800127100
(166.000000) vcan0 00E#206B3FFF08FF50BB
(166.000000) vcan0 222#00001496001070
(166.000000) vcan0 2A2#00001496001070
(166.000000) vcan0 232#00246882
(166.000000) vcan0 288#000000F10041B8ED
(166.000000) vcan0 288#00000000001B0000
(166.000000) vcan0 108#0000081E
(166.000000) vcan0 168#BD0C1C7F0000804A
(166.000000) vcan0 1F8#01EFF046D3870000
(166.000000) vcan0 2A8#000000000000001B
(166.000000) vcan0 228#40C06026
(166.000000) vcan0 29C#0008000087010014
(166.000000) vcan0 2DC#0000000000000000
(166.000000) vcan0 358#04075001F0000030
(166.000000) vcan0 154#0417140000000000
(166.000000) vcan0 106#00200000FFFF0025
(166.000000) vcan0 116#0090F411913D
(166.000000) vcan0 102#1596DDFFCEFF
(166.000000) vcan0 26A#FA0100
(166.000000) vcan0 00E#206B3FFF08FF60F1
(166.000000) vcan0 228#40C070EB
(166.000000) vcan0 116#0090F411923E
(166.000000) vcan0 106#00400000FFFF0045
(166.000000) vcan0 116#0090F411923E
(166.000000) vcan0 126#02030000004809
(166.000000) vcan0 102#2196D6FFCEFF
(166.000000) vcan0 00E#206B3FFF08FF703C
(166.000000) vcan0 288#00000000001B0000
(166.000000) vcan0 108#0000091F
(166.000000) vcan0 168#BF0C1C7F0000905C
(166.000000) vcan0 228#40C08094
(166.000000) vcan0 2A8#000000000000001B
(166.000000) vcan0 708#0000000000F1002E
(166.000000) vcan0 754#65FDFF0000000000
(166.000000) vcan0 106#00600000FFFF0065
(166.000000) vcan0 116#0090F411933F
(166.000000) vcan0 102#1396CFFFCFFF
(166.000000) vcan0 368#005A1F00000800FF
(166.000000) vcan0 708#0000000000000000
(166.000000) vcan0 248#30301D8C011500
(166.000000) vcan0 40C#00
(166.000000) vcan0 268#55001D02BD073600
(166.000000) vcan0 20C#000000000000F000
(166.000000) vcan0 22C#0000228F0000D6CE
(166.000000) vcan0 23C#3F4041787E640000
(166.000000) vcan0 228#40C09059
(166.000000) vcan0 24C#AB7D000000000000
(166.000000) vcan0 154#0417F100502DEE09
(166.000000) vcan0 154#0417140000000000
(166.000000) vcan0 71C#0500000000000000
(166.000000) vcan0 106#00800000FFFF0085
(166.000000) vcan0 754#6700950000000000
(166.000000) vcan0 102#1496D1FF9BFF
(166.000000) vcan0 116#0090F4119440
(166.000000) vcan0 754#6600000000000000
(166.000000) vcan0 00E#206A3FFF08FF90C8
(166.000000) vcan0 754#0A00000000000000
(166.000000) vcan0 2A8#000000000000001B
(166.000000) vcan0 20E#88100013BB000600
(166.000000) vcan0 40E#00
(166.000000) vcan0 288#00000000001B0000
(166.000000) vcan0 108#00000A20
(166.000000) vcan0 168#C20C1C7F0000A06F
(166.000000) vcan0 1F8#01EFF066D3A70000
(166.000000) vcan0 106#00A00000FFFF00A5
(166.000000) vcan0 228#40C0A013
(166.000000) vcan0 106#00A00000FFFF00A5
(166.000000) vcan0 154#0417140000000000
(166.000000) vcan0 116#0090F4119541
(166.000000) vcan0 2C8#6E80037B0000B0E6
(166.000000) vcan0 102#0796D5FF9CFF
(166.000000) vcan0 798#0000000000000000
(166.000000) vcan0 00E#206A3FFF08FFA082
(166.000000) vcan0 408#D0
(166.000000) vcan0 7B8#0000000000000000
(166.000000) vcan0 408#D0
(166.000000) vcan0 228#40C0B0DE
(166.000000) vcan0 154#0417140000000000
(166.000000) vcan0 106#00C00000FFFF00C5
(166.000000) vcan0 116#0090F4119642
(166.000000) vcan0 102#0796DAFF96FF
(166.000000) vcan0 00E#206A3FFF08FFB04F
(166.000000) vcan0 288#00000000001B0000
(166.000000) vcan0 108#00000B21
(166.000000) vcan0 154#0417140000000000
(166.000000) vcan0 168#C50C1C7F0000B082
(166.000000) vcan0 1F8#01EFF076D3B70000
(166.000000) vcan0 2A8#000000000000001B
(166.000000) vcan0 228#40C0C087
(166.000000) vcan0 7C8#0000000000000000
(166.000000) vcan0 106#00E00000FFFF00E5
(166.000000) vcan0 116#0090F4119743
(166.000000) vcan0 256#8102003000B000BB
(166.000000) vcan0 116#0090F4119743
(166.000000) vcan0 102#1396E0FF99FF
(166.000000) vcan0 266#8504000000700A4B
(166.000000) vcan0 00E#206A3FFF08FFC016
(166.000000) vcan0 21C#0008000086010014
(166.000000) vcan0 228#40C0D04A
(166.000000) vcan0 25C#0102269A79006C04
(166.000000) vcan0 106#00000000FFFF0005
(166.000000) vcan0 154#0417140000000000
(166.000000) vcan0 106#00000000FFFF0005
(166.000000) vcan0 238#00FF00000000F161
(166.000000) vcan0 116#0090F4119844
(166.000000) vcan0 102#2096DFFFD1FF
(166.000000) vcan0 00E#206A3FFF08FFD0DB
(166.000000) vcan0 28A#0A00FF1F00010000
(166.000000) vcan0 36A#FF0700009F9F8080
(166.000000) vcan0 108#00000C22
(166.000000) vcan0 288#00000000001B0000
(166.000000) vcan0 3C8#FFFF34C100F1007D
(166.000000) vcan0 1F8#01EFF086D3C70000
(166.000000) vcan0 2A8#000000000000001B
(166.000000) vcan0 228#40C0E000
(166.000000) vcan0 125#FF032800
(166.000000) vcan0 138#0010460000
(166.000000) vcan0 154#0417140000000000
(166.000000) vcan0 106#00200000FFFF0025
(166.000000) vcan0 154#0417140000000000
(166.000000) vcan0 116#0090F4119945
(166.000000) vcan0 102#2096DAFFCEFF
(166.000000) vcan0 25A#0000000000000000
(166.000000) vcan0 23A#0038001200000000
(166.000000) vcan0 21A#FE3612FE690507AD
(166.000000) vcan0 22A#67015E1D00000000
(166.000000) vcan0 210#0000E31D1F86FF
(166.000000) vcan0 29A#0136FE0000000000
(166.000000) vcan0 2BC#3F4041787E640000
(166.000000) vcan0 228#40C0F0CD
(166.000000) vcan0 28C#000000000000F000
(166.000000) vcan0 2AC#120028900000D6CE
(166.000000) vcan0 154#0417140000000000
(166.000000) vcan0 106#00400000FFFF0045
(166.000000) vcan0 2CC#AB7D000000000000
(166.000000) vcan0 116#0090F4119A46
(166.000000) vcan0 2CC#AB7D000000000000
(166.000000) vcan0 102#2096D0FFD2FF
(166.000000) vcan0 3A8#3030310003000000
(166.000000) vcan0 48C#00
(166.000000) vcan0 258#2FC836D84605008F
(166.000000) vcan0 20A#0001018261401111
(166.000000) vcan0 79C#0800000008000000
(166.000000) vcan0 6F2#064EB3D2DC3433CD
(166.000000) vcan0 202#FD5E459DC4091E2D
(166.000000) vcan0 3A2#FF0FFF0F00000032
(166.000000) vcan0 212#D800127100
(166.000000) vcan0 00E#206A3FFF08FFF05C
(166.000000) vcan0 222#00001296001070
(166.000000) vcan0 2A2#00001296001070
(166.000000) vcan0 232#07246882
(166.000000) vcan0 402#1000
(166.000000) vcan0 108#00000D23
(166.000000) vcan0 288#00000000001B0000
(166.000000) vcan0 108#00000D23
(166.000000) vcan0 168#CF0C1C7F0000D0AC
(166.000000) vcan0 1F8#01EFF096D3D70000
(166.000000) vcan0 2A8#000000000000001B
(166.000000) vcan0 228#40C000B2
(166.000000) vcan0 29C#0008000087010014
(166.000000) vcan0 2DC#0000000000000000
(166.000000) vcan0 154#0417140000000000
(166.000000) vcan0 106#00600000FFFF0065
(166.000000) vcan0 154#0417140000000000
(166.000000) vcan0 116#0090F4119B47
(166.000000) vcan0 102#1496CFFFB1FF
(166.000000) vcan0 26A#FA0100
(166.000000) vcan0 00E#206A3FFF08FF0023
(166.000000) vcan0 228#40C0107F
(166.000000) vcan0 154#0417140000000000
(166.000000) vcan0 126#02030000004809
(166.000000) vcan0 116#0090F4119C48
(166.000000) vcan0 126#02030000004809
(166.000000) vcan0 102#1596D2FF96FF
(166.000000) vcan0 00E#206A3FFF08FF10EE
(166.000000) vcan0 288#00000000001B0000
(166.000000) vcan0 108#00000E24
(166.000000) vcan0 168#D50C1C7F0000E0C2
(166.000000) vcan0 1F8#01EFF0A6D3E70000
(166.000000) vcan0 154#0417140000000000
(166.000000) vcan0 228#40C02035
(166.000000) vcan0 154#0417140000000000
(166.000000) vcan0 106#00A00000FFFF00A5
(166.000000) vcan0 754#65FDFF0000000000
(166.000000) vcan0 116#0090F4119D49
(166.000000) vcan0 102#2196D7FF98FF
(166.000000) vcan0 754#6700950000000000
(166.000000) vcan0 368#005A1F00000800FF
(166.000000) vcan0 754#0A00000000000000
(166.000000) vcan0 754#6400000000000000
(166.000000) vcan0 23C#3F4041787E640000
(166.000000) vcan0 00E#206A3FFF08FF20A4
(166.000000) vcan0 5D8#F9A77500
(166.000000) vcan0 268#55001D02BD073600
(166.000000) vcan0 3B8#1A23
(166.000000) vcan0 20C#000000000000F000
(166.000000) vcan0 22C#00000D8F0000D6CE
(166.000000) vcan0 248#30301D8C011500
(166.000000) vcan0 228#40C030F8
(166.000000) vcan0 248#30301D8C011500
(166.000000) vcan0 24C#AB7D000000000000
(166.000000) vcan0 40C#00
(166.000000) vcan0 154#0417140000000000
(166.000000) vcan0 71C#06000000EBFF0040
(166.000000) vcan0 106#00C00000FFFF00C5
(166.000000) vcan0 116#0090F4119E4A
(166.000000) vcan0 102#1496DFFF96FF
(166.000000) vcan0 00E#206A3FFF08FF3069
(166.000000) vcan0 228#40C040A1
(166.000000) vcan0 40E#00
(166.000000) vcan0 288#00000000001B0000
(166.000000) vcan0 108#00000F25
(166.000000) vcan0 168#DC0C1C7F0000F0D9
(166.000000) vcan0 1F8#01EFF0B6D3F70000
(166.000000) vcan0 2A8#000000000000001B
(166.000000) vcan0 106#00E00000FFF100FE
(166.000000) vcan0 106#00E00000FFFF00E5
(166.000000) vcan0 116#0090F4119F4B
(166.000000) vcan0 2C8#6E80037B0000C0F6
(166.000000) vcan0 102#2096E0FFB0FF
(166.000000) vcan0 00E#206A3FFF08FF4030
(166.000000) vcan0 3D8#860600
(166.000000) vcan0 408#E0
(166.000000) vcan0 106#00000000FFF100D0
(166.000000) vcan0 106#00000000FFFF0005
(166.000000) vcan0 116#0090F411903C
(166.000000) vcan0 102#1F96DCFFCDFF
(166.000000) vcan0 00E#206A3FFF08FF50FD
(166.000000) vcan0 108#00000016
(166.000000) vcan0 278#120040020400C01E
(166.000000) vcan0 288#00000000001B0000
(166.000000) vcan0 2A8#000000000000001B
(166.000000) vcan0 1F8#01EFF0C6D3070000
(166.000000) vcan0 102#1F96D6FFD4FF
(166.000000) vcan0 228#40C06026
(166.000000) vcan0 558#3239663331643300
(166.000000) vcan0 154#0417140000000000
(166.000000) vcan0 106#00200000FFFF0025
(166.000000) vcan0 256#8102003000C000CB
(166.000000) vcan0 116#0090F411913D
(166.000000) vcan0 102#1F96D6FFD4FF
(166.000000) vcan0 266#8504000000700A4B
(166.000000) vcan0 238#00FF00000000011E
(166.000000) vcan0 21C#0008000086010014
(166.000000) vcan0 228#40C070EB
(166.000000) vcan0 25C#0102269A5D007204
(166.000000) vcan0 154#0417140000000000
(166.000000) vcan0 106#00400000FFFF0045
(166.000000) vcan0 116#0090F411923E
(166.000000) vcan0 238#00FF00000000011E
(166.000000) vcan0 102#0796CFFFCFFF
(166.000000) vcan0 1F8#01EFF0D6D3170000
(166.000000) vcan0 28A#0A00FF1F00010000
(166.000000) vcan0 37A#87869080D7E40028
(166.000000) vcan0 66A#0000000000000000
(166.000000) vcan0 288#00000000001B0000
(166.000000) vcan0 108#00000117
(166.000000) vcan0 168#EC0C1C7F00001009
(166.000000) vcan0 228#40C08094
(166.000000) vcan0 2A8#000000000000001B
(166.000000) vcan0 228#40C08094
(166.000000) vcan0 125#FF022801
(166.000000) vcan0 138#0011470000
(166.000000) vcan0 748#0000000000000000
(166.000000) vcan0 154#0417140000000000
(166.000000) vcan0 106#00600000FFFF0065
(166.000000) vcan0 116#0090F411933F
(166.000000) vcan0 102#1496D1FF91FF
(166.000000) vcan0 25A#0000000000000000
(166.000000) vcan0 228#40C09059
(166.000000) vcan0 21A#FE3612FE690507AD
(166.000000) vcan0 22A#67015E1D00000000
(166.000000) vcan0 27A#30300D8C091500
(166.000000) vcan0 29A#0136FE0000000000
(166.000000) vcan0 210#0000E31D1E86FF
(166.000000) vcan0 00E#206A3FFF08FF8005
(166.000000) vcan0 2AC#0D001F9000F10058
(166.000000) vcan0 3A8#3030310003000000
(166.000000) vcan0 154#0417140000000000
(166.000000) vcan0 106#00800000FFFF0085
(166.000000) vcan0 2BC#3F4041787E640000
(166.000000) vcan0 116#0090F4119440
(166.000000) vcan0 2CC#AB7D000000000000
(166.000000) vcan0 102#1696D5FF98FF
(166.000000) vcan0 258#2FC836D84605008F
(166.000000) vcan0 48C#00
(166.000000) vcan0 258#2FC836D84605008F
(166.000000) vcan0 20A#0001018271401111
(166.000000) vcan0 5AC#0000000000001A00
(166.000000) vcan0 79C#0900080000000800
(166.000000) vcan0 202#FD5E459DC4091E2D
(166.000000) vcan0 6F2#074EB3D3CC3433CD
(166.000000) vcan0 212#D800127100
(166.000000) vcan0 2A2#00001396001070
(166.000000) vcan0 222#00001396001070
(166.000000) vcan0 1F8#01EFF0E6D3270000
(166.000000) vcan0 402#1000
(166.000000) vcan0 3A2#FF0FFF0F00000032
(166.000000) vcan0 288#00000000001B0000
(166.000000) vcan0 108#00000218
(166.000000) vcan0 168#F30C1C7F00002020
(166.000000) vcan0 228#40C0A013
(166.000000) vcan0 2A8#000000000000001B
(166.000000) vcan0 228#40C0A013
(166.000000) vcan0 29C#0008000087010014
(166.000000) vcan0 2DC#0000000000000000
(166.000000) vcan0 358#04075001F0000030
(166.000000) vcan0 154#0417140000000000
(166.000000) vcan0 106#00A00000FFFF00A5
(166.000000) vcan0 116#0090F4119541
(166.000000) vcan0 102#0796DAFF97FF
(166.000000) vcan0 26A#FA0100
(166.000000) vcan0 00E#206A3FFF08FFA082
(166.000000) vcan0 228#40C0B0DE
(166.000000) vcan0 154#0417140000000000
(166.000000) vcan0 106#00C00000FFFF00C5
(166.000000) vcan0 116#0090F4119642
(166.000000) vcan0 126#02030000004809
(166.000000) vcan0 102#1296E1FF97FF
(166.000000) vcan0 108#00000319
(166.000000) vcan0 288#00000000001B0000
(166.000000) vcan0 154#0417140000F10038
(166.000000) vcan0 1F8#01EFF0F6D3370000
(166.000000) vcan0 2A8#000000000000001B
(166.000000) vcan0 368#005A1F00000800FF
(166.000000) vcan0 3E8#8989890000000000
(166.000000) vcan0 228#40C0C087
(166.000000) vcan0 106#00E00000FFFF00E5
(166.000000) vcan0 754#65FDFF0000000000
(166.000000) vcan0 106#00E00000FFFF00E5
(166.000000) vcan0 65D#0D00000096313561
(166.000000) vcan0 116#0090F4119743
(166.000000) vcan0 102#1E96E0FFD1FF
(166.000000) vcan0 304#0000000000000000
(166.000000) vcan0 314#0000000000000000
(166.000000) vcan0 67D#01000000FE00000A
(166.000000) vcan0 754#6600000000000000
(166.000000) vcan0 754#6700950000000000
(166.000000) vcan0 00E#206A3FFF08FFC016
(166.000000) vcan0 754#6400000000000000
(166.000000) vcan0 754#0A00000000000000
(166.000000) vcan0 754#0D45600095E9C901
(166.000000) vcan0 754#0E4A3C0000000000
(166.000000) vcan0 754#0FE4EA0026471101
(166.000000) vcan0 754#10DB480036EF2E00
(166.000000) vcan0 754#11F58D008AE40100
(166.000000) vcan0 268#55001D02BD073600
(166.000000) vcan0 754#11F58D008AE40100
(166.000000) vcan0 754#129E0D00BD062306
(166.000000) vcan0 754#130000FFFF000000
(166.000000) vcan0 754#1400023F01000000
(166.000000) vcan0 754#1500019700000000
(166.000000) vcan0 754#1600015700000000
(166.000000) vcan0 20C#000000000000F000
(166.000000) vcan0 23C#3F4041787E640000
(166.000000) vcan0 228#40C0D04A
(166.000000) vcan0 23C#3F4041787E640000
(166.000000) vcan0 24C#AB7D000000000000
(166.000000) vcan0 40C#00
(166.000000) vcan0 71C#070000000003DF00
(166.000000) vcan0 728#0000000000000000
(166.000000) vcan0 106#00000000FFFF0005
(166.000000) vcan0 154#0417140000000000
(166.000000) vcan0 248#30301D8C011500
(166.000000) vcan0 248#30301D8C011500
(166.000000) vcan0 754#1700015100000000
(166.000000) vcan0 00E#206A3FFF08FFD0DB
(166.000000) vcan0 20E#88100013BB000600
(166.000000) vcan0 40E#00
(166.000000) vcan0 288#00000000001B0000
(166.000000) vcan0 108#0000041A
(166.000000) vcan0 168#020D1C7F00004050
(166.000000) vcan0 1F8#01EFF006D3470000
(166.000000) vcan0 2A8#000000000000001B
(166.000000) vcan0 228#40C0E000
(166.000000) vcan0 154#0417140000000000
(166.000000) vcan0 106#00200000FFFF0025
(166.000000) vcan0 116#0090F4119945
(166.000000) vcan0 2C8#6E80037B0000D006
(166.000000) vcan0 738#0000000000000000
(166.000000) vcan0 102#0796D0FFCDFF
(166.000000) vcan0 00E#206A3FFF08FFE091
(166.000000) vcan0 228#40C0F0CD
(166.000000) vcan0 154#0417140000000000
(166.000000) vcan0 106#00400000FFFF0045
(166.000000) vcan0 116#0090F4119A46
(166.000000) vcan0 102#1296D0FFA7FF
(166.000000) vcan0 3D8#860600
(166.000000) vcan0 408#F0
(166.000000) vcan0 278#120040020400D02E
(166.000000) vcan0 00E#206A3FFF08FFF05C
(166.000000) vcan0 278#120040020400D02E
(166.000000) vcan0 288#00000000001B0000
(166.000000) vcan0 108#0000051B
(166.000000) vcan0 168#090D1C7F00005067
(166.000000) vcan0 1F8#01EFF015D2570000
(166.000000) vcan0 2A8#000000000000001B
(166.000000) vcan0 228#40C000B2
(166.000000) vcan0 106#00600000FFFF0065
(166.000000) vcan0 154#0417140000000000
(166.000000) vcan0 106#00600000FFFF0065
(166.000000) vcan0 256#8102003000D000DB
(166.000000) vcan0 116#0090F4119B47
(166.000000) vcan0 266#8504000000700A4B
(166.000000) vcan0 102#0596D3FF99FF
(166.000000) vcan0 00E#206A3FFF08FF0023
(166.000000) vcan0 228#40C0107F
(166.000000) vcan0 7D8#0000000000000000
(166.000000) vcan0 25C#0102269A41007904
(166.000000) vcan0 7D8#0000000000000000
(166.000000) vcan0 238#00FF0000000011D3
(166.000000) vcan0 106#00800000FFFF0085
(166.000000) vcan0 154#0417140000000000
(166.000000) vcan0 116#0090F4119C48
(166.000000) vcan0 102#0796D7FF93FF
(166.000000) vcan0 378#8060820000000000
(166.000000) vcan0 39A#3432302819191400
(166.000000) vcan0 28A#0A00FF1F00010000
(166.000000) vcan0 125#FF022902
(166.000000) vcan0 288#00000000001B0000
(166.000000) vcan0 108#0000061C
(166.000000) vcan0 168#100D1C7F0000607E
(166.000000) vcan0 1F8#01EFF026D3670000
(166.000000) vcan0 2A8#000000000000001B
(166.000000) vcan0 228#40C02035
(166.000000) vcan0 154#0417140000F10006
(166.000000) vcan0 154#0417140000000000
(166.000000) vcan0 106#00A00000FFFF00A5
(166.000000) vcan0 116#0090F4119D49
(166.000000) vcan0 102#1396E0FF97FF
(166.000000) vcan0 25A#0000000000000000
(166.000000) vcan0 23A#0038001200000000
(166.000000) vcan0 21A#FE3612FE690507AD
(166.000000) vcan0 29A#0136FE0000000000
(166.000000) vcan0 27A#30300D8C091500
(166.000000) vcan0 2A2#00001196001070
(166.000000) vcan0 210#0000E31D1E86FF
(166.000000) vcan0 00E#206A3FFF08FF20A4
(166.000000) vcan0 202#FD5E459DC4091E2D
(166.000000) vcan0 212#D800127100
(166.000000) vcan0 6F2#084EB3D3DC3443CD
(166.000000) vcan0 222#00001196001070
(166.000000) vcan0 402#1000
(166.000000) vcan0 232#07246882
(166.000000) vcan0 402#1000
(166.000000) vcan0 3A2#FF0FFF0F00000032
(166.000000) vcan0 228#40C030F8
(166.000000) vcan0 28C#000000000000F000
(166.000000) vcan0 2AC#100020900000D6CE
(166.000000) vcan0 2BC#3F4041787E640000
(166.000000) vcan0 154#0417140000000000
(166.000000) vcan0 102#2096E0FFBBFF
(166.000000) vcan0 2CC#AB7D000000000000
(166.000000) vcan0 102#2096E0FFBBFF
(166.000000) vcan0 116#0090F4119E4A
(166.000000) vcan0 48C#00
(166.000000) vcan0 79C#0A00000000000000
(166.000000) vcan0 20A#0001018281401111
(166.000000) vcan0 3A8#3030310003000000
(166.000000) vcan0 258#2FC836D84605008F
(166.000000) vcan0 108#0000071D
(166.000000) vcan0 288#00000000001B0000
(166.000000) vcan0 2DC#0000000000F100DE
(166.000000) vcan0 1F8#01EFF036D3770000
(166.000000) vcan0 2A8#000000000000001B
(166.000000) vcan0 358#04075001F0000030
(166.000000) vcan0 228#40C040A1
(166.000000) vcan0 29C#0008000087010014
(166.000000) vcan0 106#00E00000FFFF00E5
(166.000000) vcan0 154#0417140000000000
(166.000000) vcan0 106#00E00000FFFF00E5
(166.000000) vcan0 116#0090F4119F4B
(166.000000) vcan0 102#1396DCFFD2FF
(166.000000) vcan0 26A#FA0100
(166.000000) vcan0 00E#206A3FFF08FF4030
(166.000000) vcan0 228#40C0506C
(166.000000) vcan0 154#0417140000000000
(166.000000) vcan0 126#02030000004809
(166.000000) vcan0 116#0090F411903C
(166.000000) vcan0 126#02030000004809
(166.000000) vcan0 102#2096D5FFCBFF
(166.000000) vcan0 00E#206A3FFF08FF50FD
(166.000000) vcan0 288#00000000001B0000
(166.000000) vcan0 108#0000081E
(166.000000) vcan0 168#1D0D1C7F000080AB
(166.000000) vcan0 1F8#01EFF046D3870000
(166.000000) vcan0 154#0417140000000000
(166.000000) vcan0 228#40C06026
(166.000000) vcan0 154#0417140000000000
(166.000000) vcan0 754#65FDFF0000000000
(166.000000) vcan0 106#00200000FFFF0025
(166.000000) vcan0 116#0090F411913D
(166.000000) vcan0 102#2196CEFFCFFF
(166.000000) vcan0 368#005A1F00000800FF
(166.000000) vcan0 268#55001D02BD073600
(166.000000) vcan0 22C#00001B8F0000D6CE
(166.000000) vcan0 20C#000000000000F000
(166.000000) vcan0 154#0417140000000000
(166.000000) vcan0 228#40C070EB
(166.000000) vcan0 23C#3F4041787E640000
(166.000000) vcan0 248#30301D8C011500
(166.000000) vcan0 24C#AB7D000000000000
(166.000000) vcan0 40C#00
(166.000000) vcan0 71C#0800000000000000
(166.000000) vcan0 754#6700950000000000
(166.000000) vcan0 106#00400000FFFF0045
(166.000000) vcan0 754#6700950000000000
(166.000000) vcan0 102#FA95D1FF98FF
(166.000000) vcan0 116#0090F411923E
(166.000000) vcan0 754#6600000000000000
(166.000000) vcan0 754#6400000000000000
(166.000000) vcan0 754#0A00000000000000
(166.000000) vcan0 00E#206A3FFF08FF707A
(166.000000) vcan0 40E#00
(166.000000) vcan0 30E#000000000000
(166.000000) vcan0 228#40C0F100
(166.000000) vcan0 288#00000000001B0000
(166.000000) vcan0 108#0000091F
(166.000000) vcan0 168#230D1C7F000090C1
(166.000000) vcan0 1F8#01EFF056D3970000
(166.000000) vcan0 2A8#000000000000001B
(166.000000) vcan0 106#00600000FFF100A6
(166.000000) vcan0 106#00600000FFFF0065
(166.000000) vcan0 116#0090F411933F
(166.000000) vcan0 2C8#6E80037B0000E016
(166.000000) vcan0 102#1396D6FF96FF
(166.000000) vcan0 00E#206A3FFF08FF8005
(166.000000) vcan0 3D8#860600
(166.000000) vcan0 408#00
(166.000000) vcan0 106#00800000FFF10012
(166.000000) vcan0 106#00800000FFFF0085
(166.000000) vcan0 116#0090F4119440
(166.000000) vcan0 102#1396DCFF9DFF
(166.000000) vcan0 00E#206A3FFF08FF90C8
(166.000000) vcan0 108#00000A20
(166.000000) vcan0 278#120040020400E03E
(166.000000) vcan0 288#00000000001B0000
(166.000000) vcan0 2A8#000000000000001B
(166.000000) vcan0 1F8#01EFF065D2A70000
(166.000000) vcan0 102#FC95E1FF99FF
(166.000000) vcan0 228#40C0A013
(166.000000) vcan0 154#0417140000000000
(166.000000) vcan0 106#00A00000FFFF00A5
(166.000000) vcan0 116#0090F4119541
(166.000000) vcan0 256#8102003000E000EB
(166.000000) vcan0 266#8504000000700A4B
(166.000000) vcan0 102#FC95E1FF99FF
(166.000000) vcan0 00E#206A3FFF08FFA082
(166.000000) vcan0 102#2E96DEFFD2FF
(166.000000) vcan0 228#40C0B0DE
(166.000000) vcan0 25C#0102269A24007F04
(166.000000) vcan0 238#00FF000000002199
(166.000000) vcan0 154#0417140000000000
(166.000000) vcan0 106#00C00000FFFF00C5
(166.000000) vcan0 116#0090F4119642
(166.000000) vcan0 102#2E96DEFFD2FF
(166.000000) vcan0 00E#206A3FFF08FFB04F
(166.000000) vcan0 125#FF022A03
(166.000000) vcan0 3AA#0000800000008080
(166.000000) vcan0 288#00000000001B0000
(166.000000) vcan0 108#00000B21
(166.000000) vcan0 168#2C0D1C7F0000B0EA
(166.000000) vcan0 1F8#01EFF076D3B70000
(166.000000) vcan0 2A8#000000000000001B
(166.000000) vcan0 228#40C0C087
(166.000000) vcan0 138#0013490000
(166.000000) vcan0 228#40C0C087
(166.000000) vcan0 154#0417140000000000
(166.000000) vcan0 106#00E00000FFFF00E5
(166.000000) vcan0 116#0090F4119743
(166.000000) vcan0 102#1496D7FFD2FF
(166.000000) vcan0 25A#0000000000000000
(166.000000) vcan0 23A#0038001200000000
(166.000000) vcan0 27A#30300D8C091500
(166.000000) vcan0 22A#67015E1D00000000
(166.000000) vcan0 222#00001296001070
(166.000000) vcan0 29A#0136FE0000000000
(166.000000) vcan0 210#0000E31D1F86FF
(166.000000) vcan0 00E#206A3FFF08FFC016
(166.000000) vcan0 202#FD5E459DC4091E2D
(166.000000) vcan0 6F2#094FB3D3DC3437CD
(166.000000) vcan0 212#D800127100
(166.000000) vcan0 232#07246882
(166.000000) vcan0 2A2#00001296001070
(166.000000) vcan0 232#07246882
(166.000000) vcan0 402#1000
(166.000000) vcan0 3A2#FF0FFF0F00000032
(166.000000) vcan0 228#40C0D04A
(166.000000) vcan0 28C#000000000000F000
(166.000000) vcan0 2AC#10001C900000D6CE
(166.000000) vcan0 2BC#3F4041787E640000
(166.000000) vcan0 2CC#AB7D000000000000
(166.000000) vcan0 106#00000000FFFF0005
(166.000000) vcan0 2CC#AB7D000000000000
(166.000000) vcan0 116#0090F4119844
(166.000000) vcan0 102#1396D1FFD0FF
(166.000000) vcan0 48C#00
(166.000000) vcan0 79C#0B00000000000000
(166.000000) vcan0 20A#0001018291401111
(166.000000) vcan0 3A8#3030310003000000
(166.000000) vcan0 288#00000000001B0000
(166.000000) vcan0 00E#206A3FFF08FFD0DB
(166.000000) vcan0 2DC#0000000000000000
(166.000000) vcan0 108#00000C22
(166.000000) vcan0 168#2F0D1C7F0000C0FD
(166.000000) vcan0 1F8#01EFF085D2C70000
(166.000000) vcan0 2A8#000000000000001B
(166.000000) vcan0 228#40C0E000
(166.000000) vcan0 29C#0008000087010014
(166.000000) vcan0 358#04075001F0000030
(166.000000) vcan0 154#0417140000000000
(166.000000) vcan0 358#04075001F0000030
(166.000000) vcan0 106#00200000FFFF0025
(166.000000) vcan0 116#0090F4119945
(166.000000) vcan0 102#0796D0FF99FF
(166.000000) vcan0 26A#FA0100
(166.000000) vcan0 00E#206A3FFF08FFE091
(166.000000) vcan0 228#40C0F0CD
(166.000000) vcan0 116#0090F4119A46
(166.000000) vcan0 106#00400000FFFF0045
(166.000000) vcan0 116#0090F4119A46
(166.000000) vcan0 126#02030000004809
(166.000000) vcan0 102#1396D2FF9CFF
(166.000000) vcan0 00E#206A3FFF08FFF05C
(166.000000) vcan0 288#00000000001B0000
(166.000000) vcan0 108#00000D23
(166.000000) vcan0 168#300D1C7F0000D00E
(166.000000) vcan0 368#005A1F00000800FF
(166.000000) vcan0 2A8#000000000000001B
(166.000000) vcan0 102#1396D7FF99FF
(166.000000) vcan0 228#40C000B2
(166.000000) vcan0 154#0417140000000000
(166.000000) vcan0 106#00600000FFFF0065
(166.000000) vcan0 754#65FDFF0000000000
(166.000000) vcan0 116#0090F4119B47
(166.000000) vcan0 754#6700950000000000
(166.000000) vcan0 102#1396D7FF99FF
(166.000000) vcan0 754#6600000000000000
(167.000000) vcan0 228#40C0107F
(167.000000) vcan0 754#0A00000000000000
(167.000000) vcan0 00E#206A3FFF08FF0023
(167.000000) vcan0 268#55003C02BD073600
(167.000000) vcan0 248#30301D8C011500
(167.000000) vcan0 20C#000000000000F000
(167.000000) vcan0 22C#0000268F0000D6CE
(167.000000) vcan0 24C#AB7D000000F100C6
(167.000000) vcan0 24C#AB7D000000000000
(167.000000) vcan0 40C#00
(167.000000) vcan0 52C#0000000000000A00
(167.000000) vcan0 154#0417140000000000
(167.000000) vcan0 106#00800000FFFF0085
(167.000000) vcan0 71C#0900C4FF0000C4FF
(167.000000) vcan0 116#0090F4119C48
(167.000000) vcan0 102#0796E0FF95FF
(167.000000) vcan0 00E#206A3FFF08FF10EE
(167.000000) vcan0 2A8#000000000000001B
(167.000000) vcan0 31E#000000000000
(167.000000) vcan0 40E#00
(167.000000) vcan0 288#00000000001B0000
(167.000000) vcan0 108#00000E24
(167.000000) vcan0 168#320D1C7F0000E020
(167.000000) vcan0 1F8#01EFF0A6D3E70000
(167.000000) vcan0 228#40C02035
(167.000000) vcan0 2C8#6E80037B0000F026
(167.000000) vcan0 228#40C02035
(167.000000) vcan0 154#0417140000000000
(167.000000) vcan0 106#00A00000FFFF00A5
(167.000000) vcan0 116#0090F4119D49
(167.000000) vcan0 102#2096E0FFC8FF
(167.000000) vcan0 00E#206A3FFF08FF20A4
(167.000000) vcan0 228#40C030F8
(167.000000) vcan0 116#0090F4119E4A
(167.000000) vcan0 106#00C00000FFFF00C5
(167.000000) vcan0 116#0090F4119E4A
(167.000000) vcan0 102#2096DBFFCFFF
(167.000000) vcan0 3D8#860600
(167.000000) vcan0 408#10
(167.000000) vcan0 00E#206A3FFF08FF3069
(167.000000) vcan0 108#00000F25
(167.000000) vcan0 278#120040020400F04E
(167.000000) vcan0 1F8#01EFF0B6D3F70000
(167.000000) vcan0 168#330D1C7F0000F031
(167.000000) vcan0 102#2D96D4FFCCFF
(167.000000) vcan0 2A8#000000000000001B
(167.000000) vcan0 228#40C040A1
(167.000000) vcan0 154#0417140000000000
(167.000000) vcan0 106#00E00000FFFF00E5
(167.000000) vcan0 256#8102003000F000FB
(167.000000) vcan0 116#0090F4119F4B
(167.000000) vcan0 656#0D000000D3F872F1
(167.000000) vcan0 656#0D000000D3F8724B
(167.000000) vcan0 506#01000000FE00000D
(167.000000) vcan0 516#0000000000002200
(167.000000) vcan0 306#443F4047403FA47D
(167.000000) vcan0 556#3F3F40000000
(167.000000) vcan0 316#D06ECA820078
(167.000000) vcan0 326#0000000000000000
(167.000000) vcan0 356#0000000000000000
(167.000000) vcan0 346#0000000000000000
(167.000000) vcan0 228#40C0506C
(167.000000) vcan0 366#0000000000000000
(167.000000) vcan0 386#0000000000000000
(167.000000) vcan0 396#0000000000000000
(167.000000) vcan0 267#FFFFFF
(167.000000) vcan0 00E#206A3FFF08FF4030
(167.000000) vcan0 21C#0008000086010014
(167.000000) vcan0 154#0417140000F100C8
(167.000000) vcan0 154#0417140000000000
(167.000000) vcan0 106#00000000FFFF0005
(167.000000) vcan0 116#0090F411903C
(167.000000) vcan0 102#1496CFFFC7FF
(167.000000) vcan0 238#00FF000000003154
(167.000000) vcan0 00E#206A3FFF08FF50FD
(167.000000) vcan0 28A#0A00FF1F00010000
(167.000000) vcan0 108#00000016
(167.000000) vcan0 288#00000000001B0000
(167.000000) vcan0 228#40C06026
(167.000000) vcan0 34A#00
(167.000000) vcan0 168#340D1C7F00000042
(167.000000) vcan0 1F8#01EFF0C6D3070000
(167.000000) vcan0 35A#000002037000807E
(167.000000) vcan0 2A8#000000000000001B
(167.000000) vcan0 74A#0000000000000000
(167.000000) vcan0 106#00200000FFF1006E
(167.000000) vcan0 106#00200000FFFF0025
(167.000000) vcan0 116#0090F411913D
(167.000000) vcan0 125#FF022B04
(167.000000) vcan0 102#1496D2FF94FF
(167.000000) vcan0 138#00144A0000
(167.000000) vcan0 25A#0000000000000000
(167.000000) vcan0 23A#0038001200000000
(167.000000) vcan0 27A#30300D8C091500
(167.000000) vcan0 22A#67015E1D00000000
(167.000000) vcan0 27A#30300D8C091500
(167.000000) vcan0 29A#0136FE0000000000
(167.000000) vcan0 210#0000E31D1F86FF
(167.000000) vcan0 00E#206A3FFF08FF60B7
(167.000000) vcan0 228#40C070EB
(167.000000) vcan0 28C#000000000000F000
(167.000000) vcan0 2AC#0D002C900000D6CE
(167.000000) vcan0 106#00400000FFFF0045
(167.000000) vcan0 2BC#3F4041787E640000
(167.000000) vcan0 106#00400000FFFF0045
(167.000000) vcan0 2CC#AB7D000000000000
(167.000000) vcan0 116#0090F411923E
(167.000000) vcan0 102#0796D6FF94FF
(167.000000) vcan0 3A8#3030310003000000
(167.000000) vcan0 48C#00
(167.000000) vcan0 258#2FC836D84605008F
(167.000000) vcan0 202#FD5E459DC4091E2D
(167.000000) vcan0 79C#0C00000000000000
(167.000000) vcan0 202#FD5E459DC4091E2D
(167.000000) vcan0 6F2#0A5073D40C3537CD
(167.000000) vcan0 212#D800127100
(167.000000) vcan0 222#00001096001070
(167.000000) vcan0 2A2#00001096001070
(167.000000) vcan0 232#07246882
(167.000000) vcan0 402#1000
(167.000000) vcan0 288#00000000001B0000
(167.000000) vcan0 00E#206B3FFF08FF703C
(167.000000) vcan0 288#00000000001B0000
(167.000000) vcan0 108#00000117
(167.000000) vcan0 168#340D1C7F00001052
(167.000000) vcan0 1F8#01EFF0D5D2170000
(167.000000) vcan0 2A8#000000000000001B
(167.000000) vcan0 228#40C08094
(167.000000) vcan0 29C#0008000087010014
(167.000000) vcan0 154#0417140000000000
(167.000000) vcan0 358#04075001F0000030
(167.000000) vcan0 154#0417140000000000
(167.000000) vcan0 106#00600000FFFF0065
(167.000000) vcan0 116#0090F411933F
(167.000000) vcan0 102#0796DCFF92FF
(167.000000) vcan0 26A#FA0100
(167.000000) vcan0 00E#206B3FFF08FF8043
(167.000000) vcan0 228#40C09059
(167.000000) vcan0 116#0090F4119440
(167.000000) vcan0 106#00800000FFFF0085
(167.000000) vcan0 116#0090F4119440
(167.000000) vcan0 126#02030000004809
(167.000000) vcan0 102#0796E1FF9AFF
(167.000000) vcan0 00E#206B3FFF08FF908E
(167.000000) vcan0 288#00000000001B0000
(167.000000) vcan0 108#00000218
(167.000000) vcan0 168#340D1C7F00002062
(167.000000) vcan0 228#40C0A013
(167.000000) vcan0 2A8#000000000000001B
(167.000000) vcan0 368#005A1F0000F1004E
(167.000000) vcan0 106#00A00000FFFF00A5
(167.000000) vcan0 754#65FDFF0000000000
(167.000000) vcan0 116#0090F4119541
(167.000000) vcan0 102#2096DEFFCEFF
(167.000000) vcan0 754#6700950000000000
(167.000000) vcan0 368#005A1F00000800FF
(167.000000) vcan0 754#6600000000000000
(167.000000) vcan0 23C#3F4041787E640000
(167.000000) vcan0 754#0A00000000000000
(167.000000) vcan0 00E#206B3FFF08FFA0C4
(167.000000) vcan0 248#30301D8C011500
(167.000000) vcan0 268#55001D02BD073600
(167.000000) vcan0 20C#000000000000F000
(167.000000) vcan0 22C#0000288F0000D6CE
(167.000000) vcan0 24C#AB7D000000000000
(167.000000) vcan0 228#40C0B0DE
(167.000000) vcan0 24C#AB7D000000000000
(167.000000) vcan0 40C#00
(167.000000) vcan0 71C#0A00000000000000
(167.000000) vcan0 154#0417140000000000
(167.000000) vcan0 106#00C00000FFFF00C5
(167.000000) vcan0 116#0090F4119642
(167.000000) vcan0 102#1496D7FFD0FF
(167.000000) vcan0 32E#00000000
(167.000000) vcan0 00E#206B3FFF08FFB009
(167.000000) vcan0 228#40C0C087
(167.000000) vcan0 40E#00
(167.000000) vcan0 108#00000319
(167.000000) vcan0 288#00000000001B0000
(167.000000) vcan0 168#350D1C7F00003073
(167.000000) vcan0 1F8#01EFF0F6D3370000
(167.000000) vcan0 2A8#000000000000001B
(167.000000) vcan0 106#00E00000FFF1008A
(167.000000) vcan0 106#00E00000FFFF00E5
(167.000000) vcan0 2C8#6E80037B00000036
(167.000000) vcan0 116#0090F4119743
(167.000000) vcan0 102#1496CFFFCCFF
(167.000000) vcan0 00E#206B3FFF08FFC050
(167.000000) vcan0 3D8#860600
(167.000000) vcan0 408#20
(167.000000) vcan0 106#00000000FFF10051
(167.000000) vcan0 106#00000000FFFF0005
(167.000000) vcan0 116#0090F4119844
(167.000000) vcan0 102#0796D0FF98FF
(167.000000) vcan0 00E#206B3FFF08FFD09D
(167.000000) vcan0 278#120040020400005E
(167.000000) vcan0 108#0000041A
(167.000000) vcan0 288#00000000001B0000
(167.000000) vcan0 2A8#000000000000001B
(167.000000) vcan0 1F8#01EFF006D3470000
(167.000000) vcan0 102#0796D4FF98FF
(167.000000) vcan0 228#40C0E000
(167.000000) vcan0 154#0417140000000000
(167.000000) vcan0 106#00200000FFFF0025
(167.000000) vcan0 256#810200300000000B
(167.000000) vcan0 116#0090F4119945
(167.000000) vcan0 266#8504000000700A4B
(167.000000) vcan0 102#0796D4FF98FF
(167.000000) vcan0 00E#206A3FFF08FFE091
(167.000000) vcan0 102#1596DAFF93FF
(167.000000) vcan0 25C#0102269A6C008B04
(167.000000) vcan0 228#40C0F0CD
(167.000000) vcan0 238#00FF00000000410D
(167.000000) vcan0 154#0417140000000000
(167.000000) vcan0 106#00400000FFFF0045
(167.000000) vcan0 116#0090F4119A46
(167.000000) vcan0 102#1596DAFF93FF
(167.000000) vcan0 218#7D04FF07FF0010CD
(167.000000) vcan0 2A8#000000000000001B
(167.000000) vcan0 28A#0A00FF1F00010000
(167.000000) vcan0 3CA#0000000000000000
(167.000000) vcan0 288#00000000001B0000
(167.000000) vcan0 108#0000051B
(167.000000) vcan0 168#340D1C7F00005092
(167.000000) vcan0 1F8#01EFF016D3570000
(167.000000) vcan0 138#00154B0000
(167.000000) vcan0 125#FF032D05
(167.000000) vcan0 138#00154B0000
(167.000000) vcan0 228#40C000B2
(167.000000) vcan0 154#0417140000000000
(167.000000) vcan0 106#00600000FFFF0065
(167.000000) vcan0 116#0090F4119B47
(167.000000) vcan0 102#0A96E0FF92FF
(167.000000) vcan0 25A#0000000000000000
(167.000000) vcan0 22A#67015E1D00000000
(167.000000) vcan0 21A#FE3612FE690507AD
(167.000000) vcan0 228#40C0107F
(167.000000) vcan0 27A#30300D8C091500
(167.000000) vcan0 29A#0136FE0000000000
(167.000000) vcan0 210#0000E31D1F86FF
(167.000000) vcan0 00E#206A3FFF08FF0023
(167.000000) vcan0 258#2FC836D84605008F
(167.000000) vcan0 202#FD5E459DC4091E2D
(167.000000) vcan0 28C#0000000000F100EB
(167.000000) vcan0 28C#000000000000F000
(167.000000) vcan0 154#0417140000000000
(167.000000) vcan0 2AC#0F0026900000D6CE
(167.000000) vcan0 106#00800000FFFF0085
(167.000000) vcan0 2BC#3F4041787E640000
(167.000000) vcan0 116#0090F4119C48
(167.000000) vcan0 2CC#AB7D000000000000
(167.000000) vcan0 3A8#30303100030000F1
(167.000000) vcan0 3A8#3030310003000000
(167.000000) vcan0 20A#00010182B13F1111
(167.000000) vcan0 48C#00
(167.000000) vcan0 59C#01000000FE000009
(167.000000) vcan0 6F2#0B4FB3D30C3543CD
(167.000000) vcan0 222#00001196001070
(167.000000) vcan0 79C#0D30030000000000
(167.000000) vcan0 402#1000
(167.000000) vcan0 232#07246882
(167.000000) vcan0 328#8A8A8CF100DFDFF6
(167.000000) vcan0 00E#206A3FFF08FF10EE
(167.000000) vcan0 51A#4309000000000000
(167.000000) vcan0 308#E9EB1011B9300000
(167.000000) vcan0 288#00000000001B0000
(167.000000) vcan0 108#0000061C
(167.000000) vcan0 1F8#01EFF026D3670000
(167.000000) vcan0 168#340D1C7F000060A2
(167.000000) vcan0 1F8#01EFF026D3670000
(167.000000) vcan0 2A8#000000000000001B
(167.000000) vcan0 3F8#A4029A0292029602
(167.000000) vcan0 318#7B787F1462000000
(167.000000) vcan0 228#40C02035
(167.000000) vcan0 29C#0008000087010014
(167.000000) vcan0 2DC#0000000000000000
(167.000000) vcan0 358#04075001F0000030
(167.000000) vcan0 154#0417140000000000
(167.000000) vcan0 358#04075001F0000030
(167.000000) vcan0 106#00A00000FFFF00A5
(167.000000) vcan0 116#0090F4119D49
(167.000000) vcan0 102#2E96DAFFCDFF
(167.000000) vcan0 26A#FA0100
(167.000000) vcan0 00E#206A3FFF08FF20A4
(167.000000) vcan0 228#40C030F8
(167.000000) vcan0 106#00C00000FFFF00C5
(167.000000) vcan0 154#0417140000000000
(167.000000) vcan0 106#00C00000FFFF00C5
(167.000000) vcan0 116#0090F4119E4A
(167.000000) vcan0 126#02030000004809
(167.000000) vcan0 102#2396D3FFD0FF
(167.000000) vcan0 00E#206A3FFF08FF3069
(167.000000) vcan0 288#00000000001B0000
(167.000000) vcan0 108#0000071D
(167.000000) vcan0 2A8#000000000000001B
(167.000000) vcan0 1F8#01EFF036D3770000
(167.000000) vcan0 116#0090F4119F4B
(167.000000) vcan0 368#005A1F00000800FF
(167.000000) vcan0 228#40C040A1
(167.000000) vcan0 3DC#0000000000000000
(167.000000) vcan0 154#0417140000000000
(167.000000) vcan0 754#65FDFF0000000000
(167.000000) vcan0 106#00E00000FFFF00E5
(167.000000) vcan0 102#1696D0FFB7FF
(167.000000) vcan0 754#6700950000000000
(167.000000) vcan0 102#1696D0FFB7FF
(167.000000) vcan0 754#6600000000000000
(167.000000) vcan0 754#6400000000000000
(167.000000) vcan0 754#0A00000000000000
(167.000000) vcan0 268#55001D02BD073600
(167.000000) vcan0 00E#206A3FFF08FF4030
(167.000000) vcan0 20C#000000000000F000
(167.000000) vcan0 228#40C0506C
(167.000000) vcan0 23C#3F4041787E640000
(167.000000) vcan0 71C#0B00000000F10006
(167.000000) vcan0 24C#AB7D000000000000
(167.000000) vcan0 3AC#0000000000000000
(167.000000) vcan0 40C#00
(167.000000) vcan0 154#0417140000000000
(167.000000) vcan0 106#00000000FFFF0005
(167.000000) vcan0 102#0A96D2FF95FF
(167.000000) vcan0 116#0090F411903C
(167.000000) vcan0 102#0A96D2FF95FF
(167.000000) vcan0 00E#206B3FFF08FF50BB
(167.000000) vcan0 20E#88100013BB000600
(167.000000) vcan0 33E#0000000000000000
(167.000000) vcan0 40E#00
(167.000000) vcan0 288#00000000001B0000
(167.000000) vcan0 108#0000081E
(167.000000) vcan0 2A8#000000000000001B
(167.000000) vcan0 1F8#01EFF046D3870000
(167.000000) vcan0 2A8#000000000000001B
(167.000000) vcan0 228#40C06026
(167.000000) vcan0 3BC#0055555501000000
(167.000000) vcan0 154#0417140000000000
(167.000000) vcan0 106#00200000FFFF0025
(167.000000) vcan0 116#0090F411913D
(167.000000) vcan0 2C8#6E80037B00001046
(167.000000) vcan0 102#1696D5FF94FF
(167.000000) vcan0 00E#206B3FFF08FF60F1
(167.000000) vcan0 3D8#860600
(167.000000) vcan0 408#30
(167.000000) vcan0 228#40C070EB
(167.000000) vcan0 154#0417140000000000
(167.000000) vcan0 106#00400000FFFF0045
(167.000000) vcan0 116#0090F411923E
(167.000000) vcan0 102#0A96DEFF97FF
(167.000000) vcan0 278#120040020400106E
(167.000000) vcan0 108#0000091F
(167.000000) vcan0 106#00600000FFFF0065
(167.000000) vcan0 288#00000000001B0000
(167.000000) vcan0 168#340D1C7F000090D2
(167.000000) vcan0 1F8#01EFF056D3970000
(167.000000) vcan0 2A8#000000000000001B
(167.000000) vcan0 228#40C08094
(167.000000) vcan0 154#0417140000000000
(167.000000) vcan0 116#0090F411933F
(167.000000) vcan0 256#810200300010001B
(167.000000) vcan0 116#0090F411933F
(167.000000) vcan0 102#2396E1FFA0FF
(167.000000) vcan0 266#8504000000700A4B
(167.000000) vcan0 00E#206B3FFF08FF8043
(167.000000) vcan0 21C#0008000086010014
(167.000000) vcan0 25C#0102269A50009204
(167.000000) vcan0 228#40C49074
(167.000000) vcan0 154#0417140000000000
(167.000000) vcan0 106#00800000FFFF0085
(167.000000) vcan0 154#0417140000000000
(167.000000) vcan0 116#0090F4319460
(167.000000) vcan0 102#0A96DDFFCFFF
(167.000000) vcan0 338#D600F70027015454
(167.000000) vcan0 00E#206B3FFF08FF908E
(167.000000) vcan0 28A#0A00FF1F00010000
(167.000000) vcan0 30A#00017CB302410017
(167.000000) vcan0 288#00000000001B0000
(167.000000) vcan0 65A#0E17850000000000
(167.000000) vcan0 125#FF022D06
(167.000000) vcan0 108#00000A20
(167.000000) vcan0 48A#0000000000000000
(167.000000) vcan0 168#340D1C7F0000A0E2
(167.000000) vcan0 1F8#01EFF066D3A70000
(167.000000) vcan0 2A8#000000000000001B
(167.000000) vcan0 228#40C4A03E
(167.000000) vcan0 138#00164C0000
(167.000000) vcan0 138#00164C0000
(167.000000) vcan0 106#00A00000FFFF00A5
(167.000000) vcan0 116#0090F4319561
(167.000000) vcan0 102#2396D7FFCFFF
(167.000000) vcan0 25A#0000000000000000
(167.000000) vcan0 23A#0038001200000000
(167.000000) vcan0 21A#FE3612FE690507AD
(167.000000) vcan0 24A#FEFEFEFEFEFEFE14
(167.000000) vcan0 27A#30300D8C091500
(167.000000) vcan0 222#00001496001070
(167.000000) vcan0 29A#0136FE0000000000
(167.000000) vcan0 210#0000E31D1F86FF
(167.000000) vcan0 00E#206B3FFF08FFA0C4
(167.000000) vcan0 202#FD5E459DC4091E2D
(167.000000) vcan0 6F2#0C4BB3D29C3423CD
(167.000000) vcan0 212#D800127100
(167.000000) vcan0 232#02246882
(167.000000) vcan0 2A2#00001496001070
(167.000000) vcan0 232#02246882
(167.000000) vcan0 402#1000
(167.000000) vcan0 3A2#FF0FFF0F00000032
(167.000000) vcan0 228#40C4B0F3
(167.000000) vcan0 28C#000000000000F000
(167.000000) vcan0 2AC#0F0024900000D6CE
(167.000000) vcan0 2BC#3F4041787E640000
(167.000000) vcan0 106#00C00000FFFF00C5
(167.000000) vcan0 154#0017140000000000
(167.000000) vcan0 106#00C00000FFFF00C5
(167.000000) vcan0 48C#00
(167.000000) vcan0 116#00B0F4319682
(167.000000) vcan0 102#2196D0FFD0FF
(167.000000) vcan0 5BC#0B00060800000000
(167.000000) vcan0 79C#0E0000015D566E01
(167.000000) vcan0 20A#00010182C1401111
(167.000000) vcan0 00E#206A3FFF08FFB04F
(167.000000) vcan0 258#2FC836D84605008F
(167.000000) vcan0 29C#0008000087010014
(167.000000) vcan0 108#00000B21
(167.000000) vcan0 288#00000000001B0000
(167.000000) vcan0 278#0224400004002090
(167.000000) vcan0 168#340D1C7F0000B0F2
(167.000000) vcan0 1F8#01EFF077D4B70000
(167.000000) vcan0 2A8#000000000000001B
(167.000000) vcan0 2DC#0000000000000000
(167.000000) vcan0 228#40C4C0AA
(167.000000) vcan0 2DC#0000000000000000
(167.000000) vcan0 154#0017140000000000
(167.000000) vcan0 358#04075001F0000030
(167.000000) vcan0 106#00E00000FFFF00E5
(167.000000) vcan0 116#00B0F4319783
(167.000000) vcan0 102#1696D0FF97FF
(167.000000) vcan0 26A#FA0100
(167.000000) vcan0 228#40C4D067
(167.000000) vcan0 278#02244000040030A0
(167.000000) vcan0 228#40C4D067
(167.000000) vcan0 154#0017140000000000
(167.000000) vcan0 106#00000000FFFF0005
(167.000000) vcan0 116#00B0F4319884
(167.000000) vcan0 126#02030000004809
(167.000000) vcan0 102#0B96D4FF9AFF
(167.000000) vcan0 00E#206A3FFF08FFD0DB
(167.000000) vcan0 288#00000000001B0000
(167.000000) vcan0 108#00000C22
(167.000000) vcan0 106#00200000FFFF0025
(167.000000) vcan0 168#320D1C7F0000C000
(167.000000) vcan0 1F8#01EFF086D3C70000
(167.000000) vcan0 2A8#000000000000001B
(167.000000) vcan0 228#40C4E02D
(167.000000) vcan0 154#0017140000000000
(167.000000) vcan0 754#65FDFF0000000000
(167.000000) vcan0 368#005A1F00000800FF
(167.000000) vcan0 116#00B0F4319985
(167.000000) vcan0 368#005A1F00000800FF
(167.000000) vcan0 102#0996D9FF91FF
(167.000000) vcan0 00E#206A3FFF08FFE091
(167.000000) vcan0 268#55003C02BD073600
(167.000000) vcan0 62A#A000000000000063
(167.000000) vcan0 20C#000000000000F000
(167.000000) vcan0 22C#0000188F0000D6CE
(167.000000) vcan0 24C#AB7D000000000000
(167.000000) vcan0 228#40C8F097
(167.000000) vcan0 116#00B0F4419A96
(167.000000) vcan0 278#02244000040050C0
(167.000000) vcan0 40C#00
(167.000000) vcan0 248#30301D8C011500
(167.000000) vcan0 154#0017140000000000
(167.000000) vcan0 106#00400000FFFF0045
(167.000000) vcan0 388#38384C475A4E0000
(167.000000) vcan0 71C#0C000000000000F1
(167.000000) vcan0 71C#0C00000000000000
(167.000000) vcan0 754#6700150000000000
(167.000000) vcan0 754#6600000000000000
(167.000000) vcan0 754#6400000000000000
(167.000000) vcan0 754#0A00000000000000
(167.000000) vcan0 00E#20693FFF08FFF096
(167.000000) vcan0 20E#88100013BB000600
(167.000000) vcan0 108#0000F100
(167.000000) vcan0 108#00000D23
(167.000000) vcan0 168#330D1C7F0000D011
(167.000000) vcan0 1F8#01EFF096D3D70000
(167.000000) vcan0 2A8#000000000000001B
(167.000000) vcan0 278#02244000040060D0
(167.000000) vcan0 228#40C800E8
(167.000000) vcan0 2C8#6E80037B00002056
(167.000000) vcan0 116#00B0F4419B97
(167.000000) vcan0 106#00600000FFFF0065
(167.000000) vcan0 116#00B0F4419B97
(167.000000) vcan0 102#2496DFFFCEFF
(167.000000) vcan0 00E#20693FFF08FF00E9
(167.000000) vcan0 278#02244000040070E0
(167.000000) vcan0 228#40C81025
(167.000000) vcan0 3D8#860600
(167.000000) vcan0 408#40
(167.000000) vcan0 116#00C0F4419CA8
(167.000000) vcan0 106#00800000FFFF0085
(167.000000) vcan0 116#00C0F4419CA8
(167.000000) vcan0 102#0996D4FFBEFF
(167.000000) vcan0 00E#20693FFF08FF1024
(167.000000) vcan0 278#02244000040080F0
(167.000000) vcan0 108#00000E24
(167.000000) vcan0 288#00000000001B0000
(167.000000) vcan0 168#330D1C7F0000E021
(167.000000) vcan0 228#40C8206F
(167.000000) vcan0 2A8#000000000000001B
(167.000000) vcan0 228#40C8206F
(167.000000) vcan0 154#0017140000000000
(167.000000) vcan0 106#00A00000FFFF00A5
(167.000000) vcan0 256#8108003000200031
(167.000000) vcan0 102#0996C0FFA4FF
(167.000000) vcan0 116#00C0F4419DA9
(167.000000) vcan0 266#8404000007700A4B
(167.000000) vcan0 21C#0008000086010014
(167.000000) vcan0 278#0224400004009000
(167.000000) vcan0 238#00FF00000000618A
(167.000000) vcan0 25C#0102269A34009804
(167.000000) vcan0 228#40C830A2
(167.000000) vcan0 154#0017140000000000
(167.000000) vcan0 106#00C00000FFFF00C5
(167.000000) vcan0 116#00C0F4419EAA
(167.000000) vcan0 102#0996B5FF73FF
(167.000000) vcan0 238#00FF00000000618A
(167.000000) vcan0 00E#20683FFF08FF30E5
(167.000000) vcan0 1F8#01EFF0B6D3F70000
(167.000000) vcan0 31A#FADDFFA3F529FF87
(167.000000) vcan0 49A#0000000000000000
(167.000000) vcan0 108#00000F25
(167.000000) vcan0 278#022440000400A010
(167.000000) vcan0 288#00000000001B0000
(167.000000) vcan0 168#330D1C7F0000F031
(167.000000) vcan0 228#40C840FB
(167.000000) vcan0 2A8#000000000000001B
(167.000000) vcan0 228#40C840FB
(167.000000) vcan0 154#0017140000000000
(167.000000) vcan0 106#00E00000FFFF00E5
(167.000000) vcan0 125#FF032F07
(167.000000) vcan0 116#00C0F4419FAB
(167.000000) vcan0 102#F095B0FF49FF
(167.000000) vcan0 138#00174D0000
(167.000000) vcan0 5B8#002A841403000000
(167.000000) vcan0 25A#0000000000000000
(167.000000) vcan0 202#FD5E459DC4091E2D
(167.000000) vcan0 21A#FE3613FE690507AD
(167.000000) vcan0 22A#67015E1D00000000
(167.000000) vcan0 27A#30300D8C091500
(167.000000) vcan0 29A#0136FE0000000000
(167.000000) vcan0 210#0000E3202286FF
(167.000000) vcan0 00E#20683FFF08FF40BC
(167.000000) vcan0 212#D800127100
(167.000000) vcan0 6F2#0D4B73D3EC3437CD
(167.000000) vcan0 212#D800127100
(167.000000) vcan0 222#00000296001070
(167.000000) vcan0 2A2#00000296001070
(167.000000) vcan0 232#07246882
(167.000000) vcan0 402#1000
(167.000000) vcan0 3A2#FF0FFF0F00000032
(167.000000) vcan0 228#40C85036
(167.000000) vcan0 2BC#3F4041787E640000
(167.000000) vcan0 2AC#0F0020900000D6CE
(167.000000) vcan0 2BC#3F4041787E640000
(167.000000) vcan0 154#0017140000000000
(167.000000) vcan0 2CC#AB7D000000000000
(167.000000) vcan0 48C#00
(167.000000) vcan0 106#00000000FFFF0005
(167.000000) vcan0 79C#0F00320426100000
(167.000000) vcan0 102#EF95B0FF48FF
(167.000000) vcan0 116#00C0F441909C
(167.000000) vcan0 278#022440000400B020
(167.000000) vcan0 1F8#01EFF0C6D3070000
(167.000000) vcan0 3A8#3030310003000000
(167.000000) vcan0 258#2FC836D84605008F
(167.000000) vcan0 00E#20683FFF08FF5071
(167.000000) vcan0 108#00000016
(167.000000) vcan0 288#00000000001B0000
(167.000000) vcan0 168#330D1C7F00000041
(167.000000) vcan0 278#022440000400C030
(167.000000) vcan0 2A8#000000000000001B
(167.000000) vcan0 278#022440000400C030
(167.000000) vcan0 358#04075001F0000030
(167.000000) vcan0 29C#0008000087010014
(167.000000) vcan0 228#40C8607C
(167.000000) vcan0 2DC#0000000000000000
(167.000000) vcan0 154#0017140000F21F00
(167.000000) vcan0 106#00200000FFFF0025
(167.000000) vcan0 26A#FA0100
(167.000000) vcan0 102#E295B4FF40FF
(167.000000) vcan0 26A#FA0100
(167.000000) vcan0 00E#20683FFF08FF603B
(167.000000) vcan0 278#022440000400D040
(167.000000) vcan0 228#40C870B1
(167.000000) vcan0 154#0017140000DE1F00
(167.000000) vcan0 106#00400000FFFF0045
(167.000000) vcan0 116#00C0F441929E
(167.000000) vcan0 5E8#000000000000
(167.000000) vcan0 126#01033600004809
(167.000000) vcan0 5E8#000000000000
(167.000000) vcan0 00E#20683FFF08FF70F6
(167.000000) vcan0 278#022440000400E050
(167.000000) vcan0 108#00000117
(167.000000) vcan0 288#00000000001B0000
(167.000000) vcan0 168#330D1C7F00001051
(167.000000) vcan0 1F8#01EFF0D6D3170000
(167.000000) vcan0 2A8#000000000000001B
(167.000000) vcan0 228#40C880CE
(167.000000) vcan0 368#005A1F00000800FF
(167.000000) vcan0 154#0017140000D11F00
(167.000000) vcan0 754#65ACFF0000000000
(167.000000) vcan0 106#00600000FFFF0065
(167.000000) vcan0 754#6700150000000000
(167.000000) vcan0 102#FB95ADFF6EFF
(167.000000) vcan0 116#00C0F441939F
(167.000000) vcan0 754#6600000000000000
(167.000000) vcan0 754#6471057205720500
(167.000000) vcan0 228#40C89003
(167.000000) vcan0 00E#20683FFF08FF8089
(167.000000) vcan0 268#55001D02BD073600
(167.000000) vcan0 278#022440000400F060
(167.000000) vcan0 36C#0000000000000000
(167.000000) vcan0 20C#000000000000F000
(167.000000) vcan0 22C#0000D38E0000D6CE
(167.000000) vcan0 24C#AB7D000000F10053
(167.000000) vcan0 24C#AB7D000000000000
(167.000000) vcan0 398#5553000000000000
(167.000000) vcan0 154#0017140000CA1F00
(167.000000) vcan0 248#30301D8C011500
(167.000000) vcan0 40C#00
(167.000000) vcan0 51C#01000000FE000009
(167.000000) vcan0 106#00800000FFFF0085
(167.000000) vcan0 71C#0D300300000000F1
(167.000000) vcan0 71C#0D30030000000000
(167.000000) vcan0 00E#20683FFF08FF9044
(167.000000) vcan0 20E#88100013BB000600
(167.000000) vcan0 40E#00
(167.000000) vcan0 108#00000218
(167.000000) vcan0 288#00000000001B0000
(167.000000) vcan0 168#320D1C7F00002060
(167.000000) vcan0 37C#0000000000000000
(167.000000) vcan0 2A8#000000000000001B
(167.000000) vcan0 102#EF959EFF69FF
(167.000000) vcan0 278#0224400004000070
(167.000000) vcan0 2C8#6E80037B00003066
(167.000000) vcan0 228#40C8A049
(167.000000) vcan0 154#0017140000C61F00
(167.000000) vcan0 106#00A00000FFFF00A5
(167.000000) vcan0 116#00C0F44195A1
(167.000000) vcan0 102#EF959EFF69FF
(167.000000) vcan0 00E#20693FFF08FFA048
(167.000000) vcan0 116#00C0F44196A2
(167.000000) vcan0 228#40C8B084
(167.000000) vcan0 278#02484000040010A4
(167.000000) vcan0 3D8#860600
(167.000000) vcan0 408#50
(167.000000) vcan0 154#0017140000C31F00
(167.000000) vcan0 106#00C00000FFFF00C5
(167.000000) vcan0 116#00C0F44196A2
(167.000000) vcan0 102#F0959FFF34FF
(167.000000) vcan0 35C#0000000000000000
(167.000000) vcan0 108#00000319
(167.000000) vcan0 278#02484000040020B4
(167.000000) vcan0 288#00000000001B0000
(167.000000) vcan0 168#320D1C7F00003070
(167.000000) vcan0 1F8#01EFF0F6D3370000
(167.000000) vcan0 2A8#000000000000001B
(167.000000) vcan0 154#0017140000C01F00
(167.000000) vcan0 228#40C8C0DD
(167.000000) vcan0 154#0017140000C01F00
(167.000000) vcan0 106#00E00000FFFF00E5
(167.000000) vcan0 116#00C0F44197A3
(167.000000) vcan0 256#8108003000300041
(167.000000) vcan0 102#E495A2FF38FF
(167.000000) vcan0 266#8404000064700A4B
(167.000000) vcan0 00E#206A3FFF08FFC016
(167.000000) vcan0 25C#0102269A18009E04
(167.000000) vcan0 21C#0008000086010014
(167.000000) vcan0 25C#0102269A18009E04
(167.000000) vcan0 228#40C8D010
(167.000000) vcan0 278#02484000040030C4
(167.000000) vcan0 154#0017140000C41F00
(167.000000) vcan0 106#00000000FFFF0005
(167.000000) vcan0 116#00C0F44198A4
(167.000000) vcan0 102#EF95B2FF51FF
(167.000000) vcan0 28A#0A00FF1F00010000
(167.000000) vcan0 00E#206A3FFF08FFD0DB
(167.000000) vcan0 2A8#000000000000001B
(167.000000) vcan0 32A#1717120064001B00
(167.000000) vcan0 4AA#0000000000000000
(167.000000) vcan0 108#0000041A
(167.000000) vcan0 288#00000000001B0000
(167.000000) vcan0 168#320D1C7F00004080
(167.000000) vcan0 1F8#01EFF006D3470000
(167.000000) vcan0 228#40C8E05A
(167.000000) vcan0 33C#0055555501000000
(167.000000) vcan0 138#00184E0000
(167.000000) vcan0 106#00200000FFFF0025
(167.000000) vcan0 278#02484000040040D4
(167.000000) vcan0 116#00C0F44199A5
(167.000000) vcan0 102#FB95C7FF6AFF
(167.000000) vcan0 125#FF022F08
(167.000000) vcan0 138#00184E0000
(167.000000) vcan0 25A#0000000000000000
(167.000000) vcan0 202#FD5E459DC4091E2D
(167.000000) vcan0 21A#FE3612FE690507AD
(167.000000) vcan0 22A#67015E1D00000000
(167.000000) vcan0 27A#30300D8C091500
(167.000000) vcan0 29A#0136FE0000000000
(167.000000) vcan0 210#0000E31D1F86FF
(167.000000) vcan0 00E#206B3FFF08FFE0D7
(167.000000) vcan0 212#D800127100
(167.000000) vcan0 6F2#0E4333D14C3413CD
(167.000000) vcan0 212#D800127100
(167.000000) vcan0 222#0000F895001070
(167.000000) vcan0 2A2#0000F895001070
(167.000000) vcan0 278#02484000040050E4
(167.000000) vcan0 232#07246882
(167.000000) vcan0 402#1000
(167.000000) vcan0 3A2#FF0FFF0F00000032
(167.000000) vcan0 2AC#1000079000F10069
(167.000000) vcan0 2AC#100007900000D6CE
(167.000000) vcan0 2BC#3F4041787E640000
(167.000000) vcan0 154#0017140000E61F00
(167.000000) vcan0 2CC#AB7D000000000000
(167.000000) vcan0 106#00400000FFFF0045
(167.000000) vcan0 48C#00
(167.000000) vcan0 79C#1008B000BFDFFF00
(167.000000) vcan0 20A#00010182E14011F1
(167.000000) vcan0 20A#00010182E1401111
(167.000000) vcan0 3A8#3030310003000000
(167.000000) vcan0 258#2FC836D84605008F
(167.000000) vcan0 00E#206B3FFF08FFF01A
(167.000000) vcan0 108#0000051B
(167.000000) vcan0 288#00000000001B0000
(167.000000) vcan0 168#320D1C7F00005090
(167.000000) vcan0 278#02484000040060F4
(167.000000) vcan0 2A8#000000000000001B
(167.000000) vcan0 102#0996CCFFB7FF
(167.000000) vcan0 228#40C800E8
(167.000000) vcan0 29C#0008000087010014
(167.000000) vcan0 2DC#0000000000000000
(167.000000) vcan0 358#04075001F0000030
(167.000000) vcan0 154#0017140000F51F00
(167.000000) vcan0 106#00600000FFFF0065
(167.000000) vcan0 26A#FA0100
(167.000000) vcan0 116#00C0F4419BA7
(167.000000) vcan0 26A#FA0100
(167.000000) vcan0 00E#206C3FFF08FF00AA
(167.000000) vcan0 278#0248400004007004
(167.000000) vcan0 228#40C81025
(167.000000) vcan0 154#0017140000000000
(167.000000) vcan0 106#00800000FFFF0085
(167.000000) vcan0 116#00C0F4419CA8
(167.000000) vcan0 102#0996C7FFBCFF
(167.000000) vcan0 126#01036900004809
(167.000000) vcan0 228#40C8206F
(167.000000) vcan0 288#00000000001B0000
(167.000000) vcan0 108#0000061C
(167.000000) vcan0 278#0248400004008014
(167.000000) vcan0 168#320D1C7F000060A0
(167.000000) vcan0 1F8#01EFF026D3670000
(167.000000) vcan0 2A8#000000000000001B
(167.000000) vcan0 754#65DBFF0000F100DA
(167.000000) vcan0 754#65DBFF0000000000
(167.000000) vcan0 106#00A00000FFFF00A5
(167.000000) vcan0 116#00C0F4419DA9
(167.000000) vcan0 102#1496C8FF98FF
(167.000000) vcan0 754#6700150000000000
(167.000000) vcan0 368#005A1F00000800FF
(167.000000) vcan0 754#6600000000000000
(167.000000) vcan0 00E#206C3FFF08FF202D
(167.000000) vcan0 754#0A00000000000000
(167.000000) vcan0 228#40C830A2
(167.000000) vcan0 268#55001D02BD073600
(167.000000) vcan0 278#0248400004009024
(167.000000) vcan0 20C#000000000000F000
(167.000000) vcan0 22C#0000F58E0000D6CE
(167.000000) vcan0 23C#3F4041787E640000
(167.000000) vcan0 248#30301D8C011500
(167.000000) vcan0 40C#00
(167.000000) vcan0 24C#AB7D000000000000
(167.000000) vcan0 40C#00
(167.000000) vcan0 53C#0B00060800000000
(167.000000) vcan0 154#0017140000000000
(167.000000) vcan0 71C#0E0000015D566E01
(167.000000) vcan0 106#00C00000FFFF00C5
(167.000000) vcan0 116#00C0F4419EAA
(167.000000) vcan0 102#FB95CAFF86FF
(167.000000) vcan0 40E#00
(167.000000) vcan0 20E#88100013BB000600
(167.000000) vcan0 228#40C8F100
(167.000000) vcan0 288#00000000001B0000
(167.000000) vcan0 168#320D1C7F000070B0
(167.000000) vcan0 1F8#01EFF036D3770000
(167.000000) vcan0 2A8#000000000000001B
(167.000000) vcan0 278#024840000400A034
(167.000000) vcan0 154#0017140000F1000B
(167.000000) vcan0 154#0017140000000000
(167.000000) vcan0 106#00E00000FFFF00E5
(167.000000) vcan0 116#00C0F4419FAB
(167.000000) vcan0 102#FB95CFFF82FF
(167.000000) vcan0 00E#206C3FFF08FF40B9
(167.000000) vcan0 278#024840000400B044
(167.000000) vcan0 228#40C85036
(167.000000) vcan0 154#00171400F100D536
(167.000000) vcan0 154#0017140000000000
(167.000000) vcan0 106#00000000FFFF0005
(167.000000) vcan0 512#01000000FE00001F
(167.000000) vcan0 102#FA95D7FF86FF
(167.000000) vcan0 116#00C0F441909C
(167.000000) vcan0 302#604B0D
(167.000000) vcan0 342#0000000000000000
(167.000000) vcan0 312#000019343230ED27
(167.000000) vcan0 352#0000000000000000
(167.000000) vcan0 3C2#0000000000000000
(167.000000) vcan0 3B2#0000000000000000
(167.000000) vcan0 332#D307C17ED077877C
(167.000000) vcan0 362#0000000000000000
(167.000000) vcan0 522#000000000018FC00
(167.000000) vcan0 372#0000000000000000
(167.000000) vcan0 3D2#7CF84F0033075400
(167.000000) vcan0 3E2#0000000000000000
(167.000000) vcan0 242#0000000000000000
(167.000000) vcan0 3E2#0000000000000000
(167.000000) vcan0 3F2#EF95FF71FF51
(167.000000) vcan0 322#0000000000000000
(167.000000) vcan0 00E#206C3FFF08FF5074
(167.000000) vcan0 412#0809C7606000
(167.000000) vcan0 7E2#4F00000000000002
(167.000000) vcan0 108#0000081E
(167.000000) vcan0 1F8#01EFF046D3870000
(167.000000) vcan0 168#320D1C7F000080C0
(167.000000) vcan0 1F8#01EFF046D3870000
(167.000000) vcan0 2A8#000000000000001B
(167.000000) vcan0 228#40C06026
(167.000000) vcan0 154#0017140000000000
(167.000000) vcan0 106#00200000FFFF0025
(167.000000) vcan0 256#8108003000400051
(167.000000) vcan0 102#1596D8FFA1FF
(167.000000) vcan0 116#00C0F441919D
(167.000000) vcan0 266#8404000058700A4B
(167.000000) vcan0 238#00FF000000008138
(167.000000) vcan0 00E#206B3FFF08FF60F1
(167.000000) vcan0 278#024840000400D064
(167.000000) vcan0 21C#0008000086010014
(167.000000) vcan0 25C#0102269A7C00A404
(167.000000) vcan0 228#40C070EB
(167.000000) vcan0 154#1017140000000000
(167.000000) vcan0 116#00C0F441929E
(167.000000) vcan0 106#00400000FFFF0045
(167.000000) vcan0 116#00C0F441929E
(167.000000) vcan0 102#1596D3FFBFFF
(167.000000) vcan0 00E#206B3FFF08FF703C
(167.000000) vcan0 28A#0A00FF1F00010000
(167.000000) vcan0 33A#6B92FF7F00001111
(167.000000) vcan0 4BA#0000000000000000
(167.000000) vcan0 108#0000091F
(167.000000) vcan0 1F8#01EFF057D4970000
(167.000000) vcan0 168#320D1C7F000090D0
(167.000000) vcan0 116#00C0F441939F
(167.000000) vcan0 2A8#000000000000001B
(167.000000) vcan0 228#40C08094
(167.000000) vcan0 154#1017140000000000
(167.000000) vcan0 278#024840000400E074
(167.000000) vcan0 106#00600000FFFF0065
(167.000000) vcan0 102#1596CCFFBCFF
(167.000000) vcan0 138#00194F0000
(167.000000) vcan0 125#FF023009
(167.000000) vcan0 138#00194F0000
(167.000000) vcan0 25A#0000000000000000
(167.000000) vcan0 23A#0038001200000000
(167.000000) vcan0 21A#FE3612FE690507AD
(167.000000) vcan0 22A#67015E1D00000000
(167.000000) vcan0 27A#30300D8C091500
(167.000000) vcan0 29A#0136FE0000000000
(167.000000) vcan0 210#0000E3232686FF
(167.000000) vcan0 00E#206B3FFF08FF8043
(167.000000) vcan0 202#FD5E459DC4091E2D
(167.000000) vcan0 6F2#0F4CB3D2AC342BCD
(167.000000) vcan0 212#D800127100
(167.000000) vcan0 222#00000896001070
(167.000000) vcan0 2A2#00000896001070
(167.000000) vcan0 232#02246882
(167.000000) vcan0 402#1000
(167.000000) vcan0 28C#000000000000F000
(167.000000) vcan0 228#40C09059
(167.000000) vcan0 28C#000000000000F000
(167.000000) vcan0 2AC#10000C900000D6CE
(167.000000) vcan0 2BC#3F4041787E640000
(167.000000) vcan0 154#1017140000000000
(167.000000) vcan0 2CC#AB7D000000000000
(167.000000) vcan0 48C#00
(167.000000) vcan0 79C#1100000001FF0000
(167.000000) vcan0 106#00800000FFFF0085
(167.000000) vcan0 102#0896C4FFBCFF
(167.000000) vcan0 116#00C0F44194A0
(167.000000) vcan0 20A#00010182F1401111
(167.000000) vcan0 278#024840000400F084
(167.000000) vcan0 3A8#3030310003000000
(167.000000) vcan0 258#2FC836D84605008F
(167.000000) vcan0 00E#206B3FFF08FF908E
(167.000000) vcan0 288#00000000001B0000
(167.000000) vcan0 108#00000A20
(167.000000) vcan0 278#0248400004000094
(167.000000) vcan0 168#320D1C7F0000A0E0
(167.000000) vcan0 1F8#01EFF066D3A70000
(167.000000) vcan0 2A8#000000000000001B
(167.000000) vcan0 29C#0008000087010014
(167.000000) vcan0 228#40C0A013
(167.000000) vcan0 2DC#0000000000000000
(167.000000) vcan0 358#04075001F0000030
(167.000000) vcan0 116#00C0F44195A1
(167.000000) vcan0 106#00A00000FFFF00A5
(167.000000) vcan0 116#00C0F44195A1
(167.000000) vcan0 102#0A96C8FF87FF
(167.000000) vcan0 26A#FA0100
(167.000000) vcan0 00E#206B3FFF08FFA0C4
(167.000000) vcan0 278#02484000040010A4
(167.000000) vcan0 228#40C0B0DE
(167.000000) vcan0 154#1017140000000000
(167.000000) vcan0 126#02034B00004809
(167.000000) vcan0 116#00C0F44196A2
(167.000000) vcan0 126#02034B00004809
(167.000000) vcan0 102#FD95CDFF84FF
(167.000000) vcan0 00E#206B3FFF08FFB009
(167.000000) vcan0 108#00000B21
(167.000000) vcan0 278#02484000040020B4
(167.000000) vcan0 288#00000000001B0000
(167.000000) vcan0 168#320D1C7F0000B0F0
(167.000000) vcan0 228#40C0C087
(167.000000) vcan0 2A8#000000000000001B
(167.000000) vcan0 102#1696D3FF88F1
(167.000000) vcan0 708#0000000000000000
(167.000000) vcan0 154#1017140000000000
(167.000000) vcan0 754#65F1FF0000000000
(167.000000) vcan0 106#00E00000FFFF00E5
(167.000000) vcan0 116#00C0F44197A3
(167.000000) vcan0 102#1696D3FF88FF
(167.000000) vcan0 248#30301D8C011500
(167.000000) vcan0 228#40C0D04A
(167.000000) vcan0 268#55001D02BD073600
(167.000000) vcan0 278#02484000040030C4
(167.000000) vcan0 20C#000000000000F000
(167.000000) vcan0 22C#0000F08E0000D6CE
(167.000000) vcan0 23C#3F4041787E640000
(167.000000) vcan0 24C#AB7D000000000000
(167.000000) vcan0 718#0000000000F10093
(167.000000) vcan0 116#00C0F44198A4
(167.000000) vcan0 71C#0F0032048B130000
(167.000000) vcan0 154#1017140000000000
(167.000000) vcan0 754#6700150000000000
(167.000000) vcan0 106#00000000FFFF0005
(167.000000) vcan0 754#6600000000000000
(167.000000) vcan0 102#0A96D8FF88FF
(167.000000) vcan0 116#00C0F44198A4
(167.000000) vcan0 754#6444014401440100
(167.000000) vcan0 1F8#01EFF086D3C70000
(167.000000) vcan0 00E#206B3FFF08FFD09D
(167.000000) vcan0 20E#88100013BB000600
(167.000000) vcan0 40E#00
(167.000000) vcan0 108#00000C22
(167.000000) vcan0 288#00000000001B0000
(167.000000) vcan0 168#310D1C7F0000C0FF
(167.000000) vcan0 228#40C0E000
(167.000000) vcan0 2A8#000000000000001B
(167.000000) vcan0 102#FC95D6FFC1F1
(167.000000) vcan0 2C8#6E80037B00005086
(167.000000) vcan0 798#0000000000000000
(167.000000) vcan0 154#1017140000000000
(167.000000) vcan0 106#00200000FFFF0025
(167.000000) vcan0 116#00C0F44199A5
(167.000000) vcan0 102#FC95D6FFC1FF
(167.000000) vcan0 00E#206B3FFF08FFE0D7
(167.000000) vcan0 7B8#0000000000000000
(167.000000) vcan0 228#40C0F0CD
(167.000000) vcan0 154#1017140000000000
(167.000000) vcan0 106#00400000FFFF0045
(167.000000) vcan0 116#00C0F4419AA6
(167.000000) vcan0 102#1596D0FFC3FF
(167.000000) vcan0 3D8#860600
(167.000000) vcan0 7B8#0000000000000000
(167.000000) vcan0 408#70
(167.000000) vcan0 228#40C000B2
(167.000000) vcan0 108#00000D23
(167.000000) vcan0 278#02484000040060F4
(167.000000) vcan0 288#00000000001B0000
(167.000000) vcan0 168#300D1C7F0000D00E
(167.000000) vcan0 1F8#01EFF096D3D70000
(167.000000) vcan0 2A8#000000000000001B
(167.000000) vcan0 154#1017140000F100B5
(167.000000) vcan0 154#1017140000000000
(167.000000) vcan0 106#00600000FFFF0065
(167.000000) vcan0 256#8108003000500061
(167.000000) vcan0 116#00C0F4419BA7
(167.000000) vcan0 102#0896C9FFC3FF
(167.000000) vcan0 266#8404000041700A4B
(167.000000) vcan0 00E#206B3FFF08FF0065
(167.000000) vcan0 21C#0008000086010014
(167.000000) vcan0 418#E69DDF1000000000
(167.000000) vcan0 116#00C0F4419CA8
(167.000000) vcan0 25C#0102269A6000AB04
(167.000000) vcan0 228#40C0107F
(167.000000) vcan0 238#00FF0000000091F5
(167.000000) vcan0 154#1017140000000000
(167.000000) vcan0 106#00800000FFFF0085
(167.000000) vcan0 102#1596C8FF8BFF
(167.000000) vcan0 116#00C0F4419CA8
(167.000000) vcan0 00E#206B3FFF08FF10A8
(167.000000) vcan0 2A8#000000000000001B
(167.000000) vcan0 36A#FF0700009F9F8080
(167.000000) vcan0 64A#0000000000000000
(167.000000) vcan0 288#00000000001B0000
(167.000000) vcan0 108#00000E24
(167.000000) vcan0 168#300D1C7F0000E01E
(167.000000) vcan0 1F8#01EFF0A6D3E70000
(167.000000) vcan0 154#1017140000000000
(167.000000) vcan0 228#40C02035
(167.000000) vcan0 154#1017140000000000
(167.000000) vcan0 106#00A00000FFFF00A5
(167.000000) vcan0 116#00C0F4419DA9
(167.000000) vcan0 102#0796CAFF88FF
(167.000000) vcan0 278#0248400004008014
(167.000000) vcan0 125#FF03320A
(167.000000) vcan0 138#001A500000
(167.000000) vcan0 21A#FE3612FE690507AD
(167.000000) vcan0 23A#0038001200000000
(167.000000) vcan0 202#FD5E459DC4091E2D
(167.000000) vcan0 29A#0136FE0000000000
(167.000000) vcan0 27A#30300D8C091500
(167.000000) vcan0 22A#67015E1D00000000
(167.000000) vcan0 3C8#FFEE34BC008334BD
(167.000000) vcan0 210#0000E3212386FF
(167.000000) vcan0 00E#206B3FFF08FF20E2
(167.000000) vcan0 212#D800127100
(167.000000) vcan0 6F2#104E33D3CC3433CD
(167.000000) vcan0 228#40C030F8
(167.000000) vcan0 222#00000D96001070
(167.000000) vcan0 278#0248400004009024
(167.000000) vcan0 2A2#00000D96001070
(167.000000) vcan0 232#07246882
(167.000000) vcan0 402#1000
(167.000000) vcan0 3A2#FF0FFF0F00000032
(167.000000) vcan0 2AC#1000059000F100B6
(167.000000) vcan0 2AC#100005900000D6CE
(167.000000) vcan0 2BC#3F4041787E640000
(167.000000) vcan0 2CC#AB7D000000000000
(167.000000) vcan0 154#1017140000000000
(167.000000) vcan0 3A8#3030310003000000
(167.000000) vcan0 106#00C00000FFFF00C5
(167.000000) vcan0 258#2FC836D84605008F
(167.000000) vcan0 48C#00
(167.000000) vcan0 116#00C0F4419EAA
(167.000000) vcan0 48C#00
(167.000000) vcan0 79C#123C26302A002600
(167.000000) vcan0 20A#0001018201401111
(167.000000) vcan0 51A#4309000000000000
(167.000000) vcan0 00E#206C3FFF08FF30E0
(167.000000) vcan0 108#00000F25
(167.000000) vcan0 278#024840000400A034
(167.000000) vcan0 1F8#01EFF0B6D3F70000
(167.000000) vcan0 168#2D0D1C7F0000F02B
(167.000000) vcan0 106#00E00000FFFF00E5
(167.000000) vcan0 2A8#000000000000001B
(167.000000) vcan0 29C#0008000087010014
(167.000000) vcan0 228#40C040A1
(167.000000) vcan0 2DC#0000000000000000
(167.000000) vcan0 358#04075001F0000030
(167.000000) vcan0 154#1017140000000000
(167.000000) vcan0 102#1596D8FF8BFF
(167.000000) vcan0 116#00C0F4419FAB
(167.000000) vcan0 102#1596D8FF8BFF
(167.000000) vcan0 26A#FA0100
(167.000000) vcan0 00E#206C3FFF08FF40B9
(167.000000) vcan0 278#024840000400B044
(167.000000) vcan0 228#40C0506C
(167.000000) vcan0 154#1017140000000000
(167.000000) vcan0 106#00000000FFFF0005
(167.000000) vcan0 126#02033A00004809
(167.000000) vcan0 126#02033A00004809
(167.000000) vcan0 00E#206C3FFF08FF5074
(167.000000) vcan0 108#00000016
(167.000000) vcan0 288#00000000001B0000
(167.000000) vcan0 278#024840000400C054
(167.000000) vcan0 168#290D1C7F00000037
(167.000000) vcan0 1F8#01EFF0C7D4070000
(167.000000) vcan0 154#1017140000000000
(167.000000) vcan0 228#40C06026
(167.000000) vcan0 154#1017140000000000
(167.000000) vcan0 754#65F9FF0000000000
(167.000000) vcan0 106#00200000FFFF0025
(167.000000) vcan0 116#00C0F441919D
(167.000000) vcan0 102#1596D2FFC0FF
(167.000000) vcan0 368#005A1F00000800FF
(167.000000) vcan0 00E#206C3FFF08FF603E
(167.000000) vcan0 20C#000000000000F000
(167.000000) vcan0 278#024840000400D064
(167.000000) vcan0 154#1017140000000000
(167.000000) vcan0 22C#00002D8F0000D6CE
(167.000000) vcan0 23C#3F4041787E640000
(167.000000) vcan0 24C#AB7D000000000000
(167.000000) vcan0 228#40C070EB
(167.000000) vcan0 40C#00
(167.000000) vcan0 71C#10067000D3CFFF00
(167.000000) vcan0 106#00400000FFFF0045
(167.000000) vcan0 754#6700150000000000
(167.000000) vcan0 106#00400000FFFF0045
(167.000000) vcan0 754#6600000000000000
(167.000000) vcan0 102#0896CCFFBAFF
(167.000000) vcan0 116#00C0F441929E
(167.000000) vcan0 754#6423012301230100
(167.000000) vcan0 754#0A00000000000000
(167.000000) vcan0 248#30301D8C011500
(167.000000) vcan0 40E#00
(167.000000) vcan0 20E#88100013BB000600
(167.000000) vcan0 228#40C0F100
(167.000000) vcan0 288#00000000001B0000
(167.000000) vcan0 168#240D1C7F00001042
(167.000000) vcan0 1F8#01EFF0D6D3170000
(167.000000) vcan0 2A8#000000000000001B
(167.000000) vcan0 278#024840000400E074
(167.000000) vcan0 154#1017140000F10083
(167.000000) vcan0 154#1017140000000000
(167.000000) vcan0 106#00600000FFFF0065
(167.000000) vcan0 116#00C0F441939F
(167.000000) vcan0 102#2196C7FFB7FF
(167.000000) vcan0 3B8#1A23
(167.000000) vcan0 00E#206C3FFF08FF808C
(167.000000) vcan0 228#40C09059
(167.000000) vcan0 408#80
(167.000000) vcan0 3D8#860600
(167.000000) vcan0 408#80
(167.000000) vcan0 154#1017140000000000
(167.000000) vcan0 106#00800000FFFF0085
(167.000000) vcan0 116#00C0F44194A0
(167.000000) vcan0 102#0896CAFF89FF
(167.000000) vcan0 00E#206C3FFF08FF9041
(167.000000) vcan0 288#00000000001B0000
(167.000000) vcan0 168#200D1C7F00F10018
(167.000000) vcan0 256#8108003000600071
(167.000000) vcan0 1F8#01EFF0E5D2270000
(167.000000) vcan0 2A8#000000000000001B
(167.000000) vcan0 228#40C0A013
(167.000000) vcan0 154#1017140000000000
(167.000000) vcan0 106#00A00000FFFF00A5
(167.000000) vcan0 116#00C0F44195A1
(167.000000) vcan0 266#8404000035700A4B
(167.000000) vcan0 102#0896CDFF85FF
(167.000000) vcan0 266#8404000035700A4B
(167.000000) vcan0 00E#206C3FFF08FFA00B
(167.000000) vcan0 278#02484000040010A4
(167.000000) vcan0 21C#0008000086010014
(167.000000) vcan0 25C#0102269A4400B104
(167.000000) vcan0 228#40C0B0DE
(167.000000) vcan0 154#1017140000000000
(167.000000) vcan0 116#00C0F44196A2
(167.000000) vcan0 106#00C00000FFFF00C5
(167.000000) vcan0 116#00C0F44196A2
(167.000000) vcan0 102#1596D4FF85FF
(167.000000) vcan0 00E#206C3FFF08FFB0C6
(167.000000) vcan0 28A#0A00FF1F00010000
(167.000000) vcan0 37A#86869180D7E40028
(167.000000) vcan0 66A#0000000000000000
(167.000000) vcan0 288#00000000001B0000
(167.000000) vcan0 168#1C0D1C7F00F1005F
(167.000000) vcan0 116#00C0F44197A3
(167.000000) vcan0 1F8#01EFF0F5D2370000
(167.000000) vcan0 2A8#000000000000001B
(167.000000) vcan0 228#40C0C087
(167.000000) vcan0 154#1017140000000000
(167.000000) vcan0 106#00E00000FFFF00E5
(167.000000) vcan0 125#FF02320B
(167.000000) vcan0 138#001B510000
(167.000000) vcan0 102#1596D9FF8DFF
(167.000000) vcan0 138#001B510000
(167.000000) vcan0 748#0000000000000000
(167.000000) vcan0 25A#0000000000000000
(167.000000) vcan0 23A#0038001200000000
(167.000000) vcan0 21A#FE3612FE690507AD
(167.000000) vcan0 22A#67015E1D00000000
(167.000000) vcan0 27A#30300D8C091500
(167.000000) vcan0 00E#206C3FFF08FFC09F
(167.000000) vcan0 210#0000E3202286FF
(167.000000) vcan0 402#1000
(167.000000) vcan0 202#FD5E459DC4091E2D
(167.000000) vcan0 6F2#114E33D3DC343BCD
(167.000000) vcan0 212#D800127100
(167.000000) vcan0 222#00000B96001070
(167.000000) vcan0 2A2#00000B96001070
(167.000000) vcan0 232#07246882
(167.000000) vcan0 228#40C0D0F1
(167.000000) vcan0 228#40C0D04A
(167.000000) vcan0 28C#000000000000F000
(167.000000) vcan0 2AC#0A000D900000D6CE
(167.000000) vcan0 2BC#3F4041787E640000
(167.000000) vcan0 154#1017140000000000
(167.000000) vcan0 2CC#AB7D000000000000
(167.000000) vcan0 106#00000000FFFF0005
(167.000000) vcan0 102#1396F100B3E1
(167.000000) vcan0 102#1396D7FFC1FF
(167.000000) vcan0 116#00C0F44198A4
(167.000000) vcan0 79C#1300E1C101000000
(167.000000) vcan0 20A#0001018211401111
(167.000000) vcan0 278#02484000040030C4
(167.000000) vcan0 3A8#3030310003000000
(167.000000) vcan0 258#2FC836D84605008F
(167.000000) vcan0 288#00000000001B0000
(167.000000) vcan0 108#0000041A
(167.000000) vcan0 2DC#0000000000000000
(167.000000) vcan0 278#02484000040040D4
(167.000000) vcan0 168#1B0D1C7F00004069
(167.000000) vcan0 1F8#01EFF006D3470000
(167.000000) vcan0 2A8#000000000000001B
(167.000000) vcan0 29C#0008000087010014
(167.000000) vcan0 228#40C0E000
(167.000000) vcan0 154#1017140000000000
(167.000000) vcan0 358#04075001F0000030
(167.000000) vcan0 154#1017140000000000
(167.000000) vcan0 106#00200000FFFF0025
(167.000000) vcan0 116#00C0F44199A5
(167.000000) vcan0 102#1596D1FFBFFF
(167.000000) vcan0 26A#FA0100
(167.000000) vcan0 00E#206B3FFF08FFE0D7
(167.000000) vcan0 278#02484000040050E4
(167.000000) vcan0 106#00400000FFF10068
(167.000000) vcan0 106#00400000FFFF0045
(167.000000) vcan0 116#00C0F4419AA6
(167.000000) vcan0 102#1596C8FFBCFF
(167.000000) vcan0 126#02033100004809
(167.000000) vcan0 00E#206B3FFF08FFF01A
(167.000000) vcan0 278#02484000040060F4
(167.000000) vcan0 108#0000051B
(167.000000) vcan0 1F8#01EFF016D3570000
(167.000000) vcan0 168#180D1C7F00005076
(167.000000) vcan0 304#0000000000000000
(167.000000) vcan0 2A8#000000000000001B
(167.000000) vcan0 228#40C000B2
(167.000000) vcan0 368#005A1F00000800FF
(167.000000) vcan0 154#1017140000000000
(167.000000) vcan0 3E8#8889890000000000
(167.000000) vcan0 106#00600000FFFF0065
(167.000000) vcan0 116#00C0F4419BA7
(167.000000) vcan0 102#1396C9FF85FF
(167.000000) vcan0 116#00C0F4419BA7
(167.000000) vcan0 314#0000000000000000
(167.000000) vcan0 67D#01000000FE00000A
(167.000000) vcan0 68D#0000000000000096
