Time Stamp,ID,Extended,Bus,LEN,D1,D2,D3,D4,D5,D6,D7,D8
166064000,0000021A,false,0,8,FE,36,12,FE,69,05,07,AD,
166064000,0000023A,false,0,8,00,37,00,12,00,00,00,00,
166064000,0000028C,false,0,8,00,00,00,00,00,00,F0,00,
166064000,0000022A,false,0,8,67,01,5E,1D,00,00,00,00,
166064000,0000027A,false,0,7,30,30,0D,8C,09,15,00,00,
166064000,0000029A,false,0,8,01,36,FE,00,00,00,00,00,
166064000,00000210,false,0,7,00,00,E3,1B,1C,86,FF,00,
166064000,0000000E,false,0,8,20,6F,3F,FF,08,FF,20,E7,
166064000,00000228,false,0,4,40,C0,30,F8,00,00,00,00,
166064000,000002AC,false,0,8,0F,00,33,90,00,00,D6,CE,
166064000,00000258,false,0,8,2F,C8,36,D8,46,05,00,8F,
166064000,000002AC,false,0,8,0F,00,33,90,00,00,D6,CE,
166064000,000002BC,false,0,8,3F,40,41,78,7E,64,00,00,
166064000,00000106,false,0,8,00,C0,00,00,FF,FF,00,C5,
166064000,00000154,false,0,8,04,07,14,00,00,00,00,00,
166064000,00000116,false,0,6,00,10,F4,11,8E,BA,00,00,
166064000,00000102,false,0,6,09,96,D6,FF,D6,FF,00,00,
166064000,000002CC,false,0,8,AB,7D,00,00,00,00,00,00,
166064000,0000048C,false,0,1,00,00,00,00,00,00,00,00,
166064000,0000079C,false,0,8,02,00,40,03,40,03,20,00,
166074000,000002A2,false,0,7,00,00,11,96,00,10,70,00,
166074000,000003A8,false,0,8,30,30,31,00,03,00,00,00,
166074000,00000202,false,0,8,FD,5E,45,9D,C4,09,1E,2D,
166074000,000006F2,false,0,8,00,4E,33,D3,DC,34,3B,CD,
166074000,00000212,false,0,5,D8,00,12,71,00,00,00,00,
166074000,0000000E,false,0,8,20,6F,3F,FF,08,FF,30,2A,
166074000,00000222,false,0,7,00,00,11,96,00,10,70,00,
166074000,00000402,false,0,2,10,00,00,00,00,00,00,00,
166074000,00000232,false,0,4,05,24,68,82,00,00,00,00,
166074000,00000228,false,0,4,40,C0,40,F1,00,00,00,00,
166074000,00000288,false,0,8,00,00,00,00,00,1B,00,00,
166074000,00000108,false,0,4,00,00,0F,25,00,00,00,00,
166074000,00000168,false,0,8,A9,0C,1C,7F,00,00,F0,A6,
166074000,000001F8,false,0,8,01,EF,F0,B6,D3,F7,00,00,
166074000,000002A8,false,0,8,00,00,00,00,00,00,00,1B,
166074000,000002DC,false,0,8,00,00,00,00,00,F1,00,97,
166074000,000002DC,false,0,8,00,00,00,00,00,00,00,00,
166074000,00000358,false,0,8,04,07,50,01,F0,00,00,30,
166074000,00000154,false,0,8,04,07,14,00,00,00,00,00,
166074000,00000106,false,0,8,00,E0,00,00,FF,FF,00,E5,
166074000,00000116,false,0,6,00,10,F4,11,8F,BB,00,00,
166074000,00000102,false,0,6,16,96,D0,FF,CB,FF,00,00,
166084000,0000026A,false,0,3,FA,01,00,00,00,00,00,00,
166084000,00000154,false,0,8,04,07,14,00,00,00,00,00,
166084000,00000228,false,0,4,40,C0,50,6C,00,00,00,00,
166084000,00000154,false,0,8,04,07,14,00,00,00,00,00,
166084000,00000106,false,0,8,00,00,00,00,FF,FF,00,05,
166084000,00000116,false,0,6,00,10,F4,11,80,AC,00,00,
166084000,00000102,false,0,6,FD,95,D1,FF,95,FF,00,00,
166084000,00000126,false,0,7,02,03,00,00,00,48,09,00,
166094000,0000000E,false,0,8,20,6F,3F,FF,08,FF,50,BE,
166094000,00000288,false,0,8,00,00,00,00,00,1B,00,00,
166094000,000001F8,false,0,8,01,EF,F0,C5,D2,F1,00,DE,
166094000,00000102,false,0,6,08,96,D6,FF,99,FF,00,00,
166094000,000002A8,false,0,8,00,00,00,00,00,00,00,1B,
166094000,00000228,false,0,4,40,C0,60,26,00,00,00,00,
166094000,00000154,false,0,8,04,07,14,00,00,00,00,00,
166094000,00000754,false,0,8,65,FD,FF,00,00,00,00,00,
166094000,00000106,false,0,8,00,20,00,00,FF,FF,00,25,
166094000,00000754,false,0,8,67,00,91,00,00,00,00,00,
166094000,00000754,false,0,8,66,00,00,00,00,00,00,F1,
166094000,00000754,false,0,8,66,00,00,00,00,00,00,00,
166104000,00000754,false,0,8,64,00,00,00,00,00,00,00,
166104000,00000368,false,0,8,00,5A,1F,00,00,08,00,FF,
166104000,00000754,false,0,8,0A,00,00,00,00,00,00,00,
166104000,00000268,false,0,8,55,00,1D,02,BD,07,36,00,
166104000,0000000E,false,0,8,20,6F,3F,FF,08,FF,60,F4,
166104000,0000022C,false,0,8,00,00,19,8F,00,00,D6,CE,
166104000,00000106,false,0,8,00,40,00,00,FF,FF,00,45,
166104000,0000023C,false,0,8,3F,40,41,78,7E,64,00,00,
166104000,00000228,false,0,4,40,C0,70,EB,00,00,00,00,
166104000,0000024C,false,0,8,AB,7D,00,00,00,00,00,00,
166104000,0000040C,false,0,1,00,00,00,00,00,00,00,00,
166104000,0000071C,false,0,8,15,00,85,9B,00,00,00,00,
166104000,00000154,false,0,8,04,07,14,00,00,00,00,00,
166104000,00000102,false,0,6,FD,95,DC,FF,95,FF,00,00,
166104000,00000116,false,0,6,00,10,F4,11,82,AE,00,00,
166104000,00000102,false,0,6,FD,95,DC,FF,95,FF,00,00,
166114000,0000000E,false,0,8,20,6F,3F,FF,08,FF,70,39,
166114000,0000020E,false,0,8,88,10,00,13,BB,00,06,00,
166114000,0000032E,false,0,4,00,00,00,00,00,00,00,00,
166114000,0000040E,false,0,1,00,00,00,00,00,00,00,00,
166114000,00000288,false,0,8,00,00,00,00,00,1B,00,00,
166114000,00000108,false,0,4,00,00,01,17,00,00,00,00,
166114000,000002A8,false,0,8,00,00,00,00,00,00,00,1B,
166114000,000001F8,false,0,8,01,EF,F0,D6,D3,17,00,00,
166114000,000002A8,false,0,8,00,00,00,00,00,00,00,1B,
166114000,00000228,false,0,4,40,C0,80,94,00,00,00,00,
166114000,00000154,false,0,8,04,07,14,00,00,00,00,00,
166114000,00000106,false,0,8,00,60,00,00,FF,FF,00,65,
166114000,00000116,false,0,6,00,10,F4,11,83,AF,00,00,
166114000,000002C8,false,0,8,6E,80,03,7B,00,00,60,96,
166114000,00000102,false,0,6,0A,96,E1,FF,9B,FF,00,00,
166124000,0000000E,false,0,8,20,6F,3F,FF,08,FF,80,46,
166124000,000003D8,false,0,3,86,06,00,00,00,00,00,00,
166124000,00000408,false,0,1,80,00,00,00,00,00,00,00,
166124000,00000228,false,0,4,40,C0,90,59,00,00,00,00,
166124000,00000154,false,0,8,04,07,14,00,00,00,00,00,
166124000,00000106,false,0,8,00,80,00,00,FF,FF,00,85,
166124000,00000116,false,0,6,00,10,F4,11,84,B0,00,00,
166124000,00000102,false,0,6,0A,96,E0,FF,D3,FF,00,00,
166134000,00000108,false,0,4,00,00,02,18,00,00,00,00,
166134000,00000288,false,0,8,00,00,00,00,00,1B,00,00,
166134000,00000106,false,0,8,00,A0,00,00,FF,F1,00,18,
166134000,00000168,false,0,8,A9,0C,1C,7F,00,00,20,D6,
166134000,000001F8,false,0,8,01,EF,F0,E6,D3,27,00,00,
166134000,000002A8,false,0,8,00,00,00,00,00,00,00,1B,
166134000,00000228,false,0,4,40,C0,A0,13,00,00,00,00,
166134000,00000154,false,0,8,04,07,14,00,00,00,00,00,
166134000,00000116,false,0,6,00,10,F4,11,85,B1,00,00,
166134000,00000256,false,0,8,81,02,00,30,00,60,00,6B,
166134000,00000116,false,0,6,00,10,F4,11,85,B1,00,00,
166134000,00000102,false,0,6,21,96,D9,FF,D3,FF,00,00,
166134000,00000266,false,0,8,85,04,00,00,00,70,0A,4B,
166144000,0000000E,false,0,8,20,6F,3F,FF,08,FF,A0,C1,
166144000,0000021C,false,0,8,00,08,00,00,86,01,00,14,
166144000,0000025C,false,0,8,01,02,26,9A,05,00,4D,04,
166144000,00000228,false,0,4,40,C0,B0,DE,00,00,00,00,
166144000,00000116,false,0,6,00,10,F4,11,86,B2,00,00,
166144000,00000154,false,0,8,04,07,14,00,00,00,00,00,
166144000,00000116,false,0,6,00,10,F4,11,86,B2,00,00,
166144000,00000238,false,0,8,00,FF,00,00,00,00,A1,BF,
166144000,00000102,false,0,6,16,96,D1,FF,D1,FF,00,00,
166154000,00000218,false,0,8,7D,04,FF,07,FF,00,00,BD,
166154000,0000000E,false,0,8,20,6F,3F,FF,08,FF,B0,0C,
166154000,0000028A,false,0,8,0A,00,FF,1F,00,01,00,00,
166154000,000003CA,false,0,8,00,00,00,00,00,00,00,00,
166154000,00000168,false,0,8,A8,0C,1C,7F,00,00,30,E5,
166154000,00000108,false,0,4,00,00,03,19,00,00,00,00,
166154000,00000125,false,0,4,FF,03,33,0B,00,00,00,00,
166154000,000001F8,false,0,8,01,EF,F0,F6,D3,37,00,00,
166154000,000002A8,false,0,8,00,00,00,00,00,00,00,1B,
166154000,00000228,false,0,4,40,C0,C0,87,00,00,00,00,
166154000,00000154,false,0,8,04,07,14,00,00,00,00,00,
166154000,00000106,false,0,8,00,E0,00,00,FF,FF,00,E5,
166154000,00000116,false,0,6,00,10,F4,11,87,B3,00,00,
166154000,00000102,false,0,6,16,96,D2,FF,A2,F1,00,00,
166154000,00000102,false,0,6,16,96,D2,FF,A2,FF,00,00,
166164000,0000025A,false,0,8,00,00,00,00,00,00,00,00,
166164000,0000023A,false,0,8,00,38,00,12,00,00,00,00,
166164000,0000021A,false,0,8,FE,36,12,FE,69,05,07,AD,
166164000,0000022A,false,0,8,67,01,5E,1D,00,00,00,00,
166164000,0000027A,false,0,7,30,30,0D,8C,09,15,00,00,
166164000,0000029A,false,0,8,01,36,FE,00,00,00,00,00,
166164000,00000228,false,0,4,40,C0,D0,4A,00,00,00,00,
166164000,0000000E,false,0,8,20,6F,3F,FF,08,FF,C0,55,
166164000,00000116,false,0,6,00,10,F4,11,88,F1,00,00,
166164000,00000258,false,0,8,2F,C8,36,D8,46,05,00,8F,
166164000,0000028C,false,0,8,00,00,00,00,00,00,F0,00,
166164000,000002AC,false,0,8,0D,00,2E,90,00,00,D6,CE,
166164000,00000106,false,0,8,00,00,00,00,FF,FF,00,05,
166164000,00000154,false,0,8,04,07,14,00,00,00,00,00,
166164000,000002BC,false,0,8,3F,40,41,78,7E,64,00,F1,
166164000,000002BC,false,0,8,3F,40,41,78,7E,64,00,00,
166164000,000002CC,false,0,8,AB,7D,00,00,00,00,00,00,
166164000,0000048C,false,0,1,00,00,00,00,00,00,00,00,
166174000,0000059C,false,0,8,01,00,00,00,FE,00,00,09,
166174000,0000020A,false,0,8,00,01,01,82,11,3F,11,11,
166174000,0000079C,false,0,8,03,00,00,00,00,00,00,00,
166174000,00000202,false,0,8,FD,5E,45,9D,C4,09,1E,2D,
166174000,0000000E,false,0,8,20,6F,3F,FF,08,FF,D0,98,
166174000,00000212,false,0,5,D8,00,12,71,00,00,00,00,
166174000,0000000E,false,0,8,20,6F,3F,FF,08,FF,D0,98,
166174000,00000222,false,0,7,00,00,14,96,00,10,70,00,
166174000,0000051A,false,0,8,43,09,00,00,00,00,00,00,
166174000,000002A2,false,0,7,00,00,14,96,00,10,70,00,
166174000,000003A8,false,0,8,30,30,31,00,03,00,00,00,
166174000,00000232,false,0,4,00,24,68,82,00,00,00,00,
166174000,00000308,false,0,8,E9,EB,10,11,B9,30,00,00,
166174000,00000328,false,0,8,8A,8A,8C,02,00,F1,00,0A,
166174000,00000328,false,0,8,8A,8A,8C,02,00,00,00,00,
166174000,00000168,false,0,8,A9,0C,1C,7F,00,00,40,F6,
166174000,000001F8,false,0,8,01,EF,F0,06,D3,47,00,00,
166174000,000002A8,false,0,8,00,00,00,00,00,00,00,1B,
166174000,000003F8,false,0,8,A4,02,9A,02,92,02,96,02,
166174000,00000402,false,0,2,10,00,00,00,00,00,00,00,
166174000,00000318,false,0,8,7B,78,7F,14,62,00,00,00,
166174000,0000029C,false,0,8,00,08,00,00,87,01,00,14,
166174000,00000228,false,0,4,40,C0,E0,00,00,00,00,00,
166174000,0000029C,false,0,8,00,08,00,00,87,01,00,14,
166174000,000002DC,false,0,8,00,00,00,00,00,00,00,00,
166174000,00000358,false,0,8,04,07,50,01,F0,00,00,30,
166174000,00000154,false,0,8,04,07,14,00,00,00,00,00,
166174000,00000106,false,0,8,00,20,00,00,FF,FF,00,25,
166174000,000003FC,false,0,8,00,00,00,00,00,00,00,00,
166174000,00000116,false,0,6,00,10,F4,11,89,B5,00,00,
166174000,0000026A,false,0,3,FA,01,00,00,00,00,00,00,
166184000,0000000E,false,0,8,20,6F,3F,FF,08,FF,E0,D2,
166184000,00000228,false,0,4,40,C0,F0,CD,00,00,00,00,
166184000,000003CC,false,0,8,00,00,00,00,00,00,00,00,
166184000,00000154,false,0,8,04,07,14,00,00,00,00,00,
166184000,00000106,false,0,8,00,40,00,00,FF,FF,00,45,
166184000,00000116,false,0,6,00,10,F4,11,8A,B6,00,00,
166184000,00000102,false,0,6,16,96,E0,FF,99,FF,00,00,
166184000,00000126,false,0,7,02,03,00,00,00,48,09,00,
166194000,00000108,false,0,4,00,00,05,1B,00,00,00,00,
166194000,00000288,false,0,8,00,00,00,00,00,1B,00,00,
166194000,00000154,false,0,8,04,07,14,00,00,F1,00,78,
166194000,000001F8,false,0,8,01,EF,F0,16,D3,57,00,00,
166194000,000002A8,false,0,8,00,00,00,00,00,00,00,1B,
166194000,00000368,false,0,8,00,5A,1F,00,00,08,00,FF,
166194000,00000228,false,0,4,40,C0,00,B2,00,00,00,00,
166194000,000003DC,false,0,8,00,00,00,00,00,00,00,00,
166194000,00000754,false,0,8,65,FD,FF,00,00,00,00,00,
166194000,00000106,false,0,8,00,60,00,00,FF,FF,00,65,
166194000,00000754,false,0,8,65,FD,FF,00,00,00,00,00,
166194000,00000116,false,0,6,00,10,F4,11,8B,B7,00,00,
166194000,00000102,false,0,6,15,96,E1,FF,BB,FF,00,00,
166194000,00000754,false,0,8,67,00,91,00,00,00,00,00,
166194000,00000754,false,0,8,66,00,00,00,00,00,00,00,
166204000,00000754,false,0,8,64,00,00,00,00,00,00,00,
166204000,00000754,false,0,8,0A,00,00,00,00,00,00,00,
166204000,0000020C,false,0,8,00,00,00,00,00,00,F0,00,
166204000,0000000E,false,0,8,20,6F,3F,FF,08,FF,00,60,
166204000,0000040C,false,0,1,00,00,00,00,00,00,00,00,
166204000,0000022C,false,0,8,00,00,2F,8F,00,00,D6,CE,
166204000,0000023C,false,0,8,3F,40,41,78,7E,64,00,00,
166204000,00000228,false,0,4,40,C0,10,7F,00,00,00,00,
166204000,00000248,false,0,7,30,30,1D,8C,01,15,00,00,
166204000,0000024C,false,0,8,AB,7D,00,00,00,00,00,00,
166204000,000003AC,false,0,8,00,00,00,00,00,00,00,00,
166204000,00000106,false,0,8,00,80,F1,00,14,13,E8,09,
166204000,00000106,false,0,8,00,80,00,00,FF,FF,00,85,
166204000,0000071C,false,0,8,16,00,00,00,00,00,00,00,
166204000,00000116,false,0,6,00,10,F4,11,8C,B8,00,00,
166204000,00000102,false,0,6,21,96,DD,FF,D4,FF,00,00,
166214000,0000000E,false,0,8,20,6F,3F,FF,08,FF,10,AD,
166214000,0000020E,false,0,8,88,10,00,13,BB,00,06,00,
166214000,0000033E,false,0,8,00,00,00,00,00,00,00,00,
166214000,00000108,false,0,4,00,00,F1,00,00,00,00,00,
166214000,00000106,false,0,8,00,A0,00,00,FF,F1,00,BA,
166214000,000001F8,false,0,8,01,EF,F0,26,D3,67,00,00,
166214000,000002A8,false,0,8,00,00,00,00,00,00,00,1B,
166214000,00000228,false,0,4,40,C0,20,35,00,00,00,00,
166214000,000003BC,false,0,8,00,55,55,55,01,00,00,00,
166214000,00000154,false,0,8,04,07,14,00,00,00,00,00,
166214000,000002C8,false,0,8,6E,80,03,7B,00,00,70,A6,
166214000,00000116,false,0,6,00,10,F4,11,8D,B9,00,00,
166214000,000002C8,false,0,8,6E,80,03,7B,00,00,70,A6,
166214000,00000102,false,0,6,21,96,D6,FF,D0,FF,00,00,
166224000,0000000E,false,0,8,20,6F,3F,FF,08,FF,20,E7,
166224000,00000228,false,0,4,40,C0,30,F8,00,00,00,00,
166224000,00000154,false,0,8,04,07,14,00,00,00,00,00,
166224000,00000106,false,0,8,00,C0,00,00,FF,FF,00,C5,
166224000,00000116,false,0,6,00,10,F4,11,8E,BA,00,00,
166224000,00000408,false,0,1,90,00,00,00,00,00,00,00,
166224000,000003D8,false,0,3,86,06,00,00,00,00,00,00,
166224000,00000408,false,0,1,90,00,00,00,00,00,00,00,
166234000,0000000E,false,0,8,20,6F,3F,FF,08,FF,30,2A,
166234000,00000278,false,0,8,12,00,40,02,04,00,70,CE,
166234000,00000288,false,0,8,00,00,00,00,00,1B,00,00,
166234000,00000108,false,0,4,00,00,07,1D,00,00,00,00,
166234000,00000168,false,0,8,A9,0C,1C,7F,00,00,70,26,
166234000,000001F8,false,0,8,01,EF,F0,35,D2,77,00,00,
166234000,00000154,false,0,8,04,07,14,00,00,00,00,00,
166234000,00000228,false,0,4,40,C0,40,A1,00,00,00,00,
166234000,00000154,false,0,8,04,07,14,00,00,00,00,00,
166234000,00000106,false,0,8,00,E0,00,00,FF,FF,00,E5,
166234000,00000256,false,0,8,81,02,00,30,00,70,00,7B,
166234000,00000116,false,0,6,00,10,F4,11,8F,BB,00,00,
166234000,00000102,false,0,6,08,96,D2,FF,9C,FF,00,00,
166234000,00000266,false,0,8,85,04,00,00,00,70,0A,4B,
166244000,0000000E,false,0,8,20,6F,3F,FF,08,FF,40,73,
166244000,0000025C,false,0,8,01,02,26,9A,69,00,53,04,
166244000,00000228,false,0,4,40,C0,50,6C,00,00,00,00,
166244000,0000025C,false,0,8,01,02,26,9A,69,00,53,04,
166244000,00000238,false,0,8,00,FF,00,00,00,00,B1,72,
166244000,00000154,false,0,8,04,07,14,00,00,00,00,00,
166244000,00000106,false,0,8,00,00,00,00,FF,FF,00,05,
166244000,00000116,false,0,6,00,10,F4,11,80,AC,00,00,
166244000,00000102,false,0,6,23,96,D8,FF,9C,FF,00,00,
166254000,00000338,false,0,8,D6,00,F7,00,27,01,54,54,
166254000,0000030A,false,0,8,00,01,7C,B3,02,41,00,17,
166254000,0000028A,false,0,8,0A,00,FF,1F,00,01,00,00,
166254000,000001F8,false,0,8,01,EF,F0,46,D3,87,00,00,
166254000,000003EA,false,0,8,01,00,00,00,FE,00,00,08,
166254000,0000065A,false,0,8,0D,00,00,00,D3,64,00,00,
166254000,00000288,false,0,8,00,00,00,00,00,1B,00,00,
166254000,00000108,false,0,4,00,00,08,1E,00,00,00,00,
166254000,0000048A,false,0,8,00,00,00,00,00,00,00,00,
166254000,00000168,false,0,8,A9,0C,1C,7F,00,00,80,36,
166254000,00000228,false,0,4,40,C0,60,26,00,00,00,00,
166254000,000002A8,false,0,8,00,00,00,00,00,00,00,1B,
166254000,00000228,false,0,4,40,C0,60,26,00,00,00,00,
166254000,00000125,false,0,4,FF,02,33,0C,00,00,00,00,
166254000,00000138,false,0,5,00,1C,52,00,00,00,00,00,
166254000,00000154,false,0,8,04,17,14,00,00,00,00,00,
166254000,00000106,false,0,8,00,20,00,00,FF,FF,00,25,
166254000,00000116,false,0,6,00,90,F4,11,91,3D,00,00,
166254000,00000102,false,0,6,0A,96,DD,FF,9E,FF,00,00,
166264000,0000021A,false,0,8,FE,36,12,FE,69,05,07,AD,
166264000,0000023A,false,0,8,00,38,00,12,00,00,00,00,
166264000,00000228,false,0,4,40,C0,70,EB,00,00,00,00,
166264000,0000022A,false,0,8,67,01,5E,1D,00,00,00,00,
166264000,0000027A,false,0,7,30,30,0D,8C,09,15,00,00,
166264000,0000024A,false,0,8,FE,FE,FE,FE,FE,FE,FE,14,
166264000,0000029A,false,0,8,01,36,FE,00,00,00,00,00,
166264000,00000210,false,0,7,00,00,E3,1B,1D,86,FF,00,
166264000,0000000E,false,0,8,20,6E,3F,FF,08,FF,60,B2,
166264000,000002AC,false,0,8,11,00,23,90,00,F1,00,4D,
166264000,0000048C,false,0,1,00,00,00,00,00,00,00,00,
166264000,000002BC,false,0,8,3F,40,41,78,7E,64,00,00,
166264000,00000154,false,0,8,04,17,14,00,00,00,00,00,
166264000,00000106,false,0,8,00,40,00,00,FF,FF,00,45,
166264000,000002CC,false,0,8,AB,7D,00,00,00,00,00,00,
166264000,00000116,false,0,6,00,90,F4,11,92,3E,00,00,
166264000,00000102,false,0,6,0A,96,E1,FF,9E,FF,00,00,
166264000,0000048C,false,0,1,00,00,00,00,00,00,00,00,
166264000,000005BC,false,0,8,0A,01,12,00,09,00,06,00,
166264000,0000079C,false,0,8,04,00,00,00,00,00,00,00,
166274000,0000020A,false,0,8,00,01,01,82,21,3F,11,11,
166274000,000003A8,false,0,8,30,30,31,00,03,00,00,00,
166274000,00000258,false,0,8,2F,C8,36,D8,46,05,00,8F,
166274000,00000202,false,0,8,FD,5E,45,9D,C4,09,1E,2D,
166274000,000006F2,false,0,8,02,45,F3,D0,8C,34,2F,CD,
166274000,00000212,false,0,5,D8,00,12,71,00,00,00,00,
166274000,000002A2,false,0,7,00,00,11,96,00,10,70,00,
166274000,00000222,false,0,7,00,00,11,96,00,10,70,00,
166274000,000001F8,false,0,8,01,EF,F0,56,D3,97,00,00,
166274000,00000402,false,0,2,10,00,00,00,00,00,00,00,
166274000,000003A2,false,0,8,FF,0F,FF,0F,00,00,00,32,
166274000,00000288,false,0,8,00,00,00,00,00,1B,00,00,
166274000,00000108,false,0,4,00,00,09,1F,00,00,00,00,
166274000,00000168,false,0,8,A8,0C,1C,7F,00,00,90,45,
166274000,00000358,false,0,8,04,07,50,01,F0,00,00,30,
166274000,000002A8,false,0,8,00,00,00,00,00,00,00,1B,
166274000,00000358,false,0,8,04,07,50,01,F0,00,00,30,
166274000,00000228,false,0,4,40,C0,80,94,00,00,00,00,
166274000,0000029C,false,0,8,00,08,00,00,87,01,00,14,
166274000,000002DC,false,0,8,00,00,00,00,00,00,00,00,
166274000,00000154,false,0,8,04,17,14,00,00,00,00,00,
166274000,00000106,false,0,8,00,60,00,00,FF,FF,00,65,
166274000,00000116,false,0,6,00,90,F4,11,93,3F,00,00,
166274000,00000102,false,0,6,15,96,DF,FF,D1,FF,00,00,
166274000,0000026A,false,0,3,FA,01,00,00,00,00,00,00,
166284000,0000000E,false,0,8,20,6E,3F,FF,08,FF,80,00,
166284000,00000228,false,0,4,40,C0,90,59,00,00,00,00,
166284000,00000154,false,0,8,04,17,14,00,00,00,00,00,
166284000,00000106,false,0,8,00,80,00,00,FF,FF,00,85,
166284000,00000116,false,0,6,00,90,F4,11,94,40,00,00,
166284000,00000126,false,0,7,02,03,00,00,00,48,09,00,
166284000,00000102,false,0,6,21,96,D8,FF,D3,FF,00,00,
166294000,00000108,false,0,4,00,00,0A,20,00,00,00,00,
166294000,00000288,false,0,8,00,00,00,00,00,1B,00,00,
166294000,00000154,false,0,8,04,17,14,00,00,F1,00,18,
166294000,000001F8,false,0,8,01,EF,F0,66,D3,A7,00,00,
166294000,000002A8,false,0,8,00,00,00,00,00,00,00,1B,
166294000,00000368,false,0,8,00,5A,1F,00,00,08,00,FF,
166294000,00000228,false,0,4,40,C0,A0,13,00,00,00,00,
166294000,00000106,false,0,8,00,A0,00,00,FF,FF,00,A5,
166294000,00000754,false,0,8,65,FD,FF,00,00,00,00,00,
166294000,00000116,false,0,6,00,90,F4,11,95,41,00,00,
166294000,00000754,false,0,8,65,FD,FF,00,00,00,00,00,
166294000,00000102,false,0,6,20,96,D0,FF,D0,FF,00,00,
166294000,00000754,false,0,8,67,00,95,00,00,00,00,00,
166294000,00000754,false,0,8,66,00,00,00,00,00,00,00,
166304000,00000754,false,0,8,64,00,00,00,00,00,00,00,
166304000,00000754,false,0,8,0A,00,00,00,00,00,00,00,
166304000,00000268,false,0,8,55,00,1D,02,BD,07,36,00,
166304000,00000388,false,0,8,38,38,4C,47,5A,4E,00,00,
166304000,0000062A,false,0,8,A0,00,00,00,00,00,00,63,
166304000,0000040C,false,0,1,00,00,00,00,00,00,00,00,
166304000,0000020C,false,0,8,00,00,00,00,00,00,F0,00,
166304000,0000022C,false,0,8,00,00,1B,8F,00,00,D6,CE,
166304000,0000023C,false,0,8,3F,40,41,78,7E,64,00,00,
166304000,00000228,false,0,4,40,C0,B0,DE,00,00,00,00,
166304000,00000248,false,0,7,30,30,1D,8C,01,15,00,00,
166304000,0000024C,false,0,8,AB,7D,00,00,00,00,00,00,
166304000,00000154,false,0,8,04,17,F1,00,DA,99,E9,09,
166304000,00000154,false,0,8,04,17,14,00,00,00,00,00,
166304000,00000106,false,0,8,00,C0,00,00,FF,FF,00,C5,
166304000,00000116,false,0,6,00,90,F4,11,96,42,00,00,
166304000,00000102,false,0,6,14,96,D0,FF,96,FF,00,00,
166314000,0000000E,false,0,8,20,6D,3F,FF,08,FF,B0,80,
166314000,0000020E,false,0,8,88,10,00,13,BB,00,06,00,
166314000,0000040E,false,0,1,00,00,00,00,00,00,00,00,
166314000,00000168,false,0,8,A9,0C,1C,7F,00,00,B0,66,
166314000,00000108,false,0,4,00,00,0B,21,00,00,00,00,
166314000,00000168,false,0,8,A9,0C,1C,7F,00,00,B0,66,
166314000,000001F8,false,0,8,01,EF,F0,76,D3,B7,00,00,
166314000,000002A8,false,0,8,00,00,00,00,00,00,00,1B,
166314000,00000228,false,0,4,40,C0,C0,87,00,00,00,00,
166314000,00000106,false,0,8,00,E0,00,00,FF,FF,00,E5,
166314000,00000154,false,0,8,04,17,14,00,00,00,00,00,
166314000,00000116,false,0,6,00,90,F4,11,97,43,00,00,
166314000,000002C8,false,0,8,6E,80,03,7B,00,00,80,B6,
166314000,00000102,false,0,6,07,96,D2,FF,9B,FF,00,00,
166324000,0000000E,false,0,8,20,6D,3F,FF,08,FF,C0,D9,
166324000,000003D8,false,0,3,86,06,00,00,00,00,00,00,
166324000,00000408,false,0,1,A0,00,00,00,00,00,00,00,
166324000,00000228,false,0,4,40,C0,D0,4A,00,00,00,00,
166324000,00000154,false,0,8,04,17,14,00,00,00,00,00,
166324000,00000106,false,0,8,00,00,00,00,FF,FF,00,05,
166324000,00000116,false,0,6,00,90,F4,11,98,44,00,00,
166324000,00000102,false,0,6,09,96,D8,FF,9A,FF,00,00,
166334000,0000000E,false,0,8,20,6C,3F,FF,08,FF,D0,52,
166334000,00000106,false,0,8,00,20,00,00,FF,F1,00,4C,
166334000,00000288,false,0,8,00,00,00,00,00,1B,00,00,
166334000,00000168,false,0,8,AC,0C,1C,7F,00,00,C0,79,
166334000,000001F8,false,0,8,01,EF,F0,86,D3,C7,00,00,
166334000,000002A8,false,0,8,00,00,00,00,00,00,00,1B,
166334000,00000228,false,0,4,40,C0,E0,00,00,00,00,00,
166334000,00000256,false,0,8,81,02,00,30,00,80,00,8B,
166334000,00000154,false,0,8,04,17,14,00,00,00,00,00,
166334000,00000256,false,0,8,81,02,00,30,00,80,00,8B,
166334000,00000116,false,0,6,00,90,F4,11,99,45,00,00,
166334000,00000102,false,0,6,0A,96,E1,FF,97,FF,00,00,
166334000,00000266,false,0,8,85,04,00,00,00,70,0A,4B,
166344000,0000000E,false,0,8,20,6C,3F,FF,08,FF,E0,18,
166344000,0000021C,false,0,8,00,08,00,00,86,01,00,14,
166344000,00000228,false,0,4,40,C0,F0,CD,00,00,00,00,
166344000,00000154,false,0,8,04,17,14,00,00,00,00,00,
166344000,00000238,false,0,8,00,FF,00,00,00,00,C1,2B,
166344000,00000154,false,0,8,04,17,14,00,00,00,00,00,
166344000,00000106,false,0,8,00,40,00,00,FF,FF,00,45,
166344000,00000116,false,0,6,00,90,F4,11,9A,46,00,00,
166344000,00000102,false,0,6,15,96,E1,FF,C8,FF,00,00,
166354000,0000000E,false,0,8,20,6B,3F,FF,08,FF,F0,1A,
166354000,0000028A,false,0,8,0A,00,FF,1F,00,01,00,00,
166354000,0000031A,false,0,8,FA,DD,FF,A3,F5,29,FF,87,
166354000,00000108,false,0,4,00,00,0D,23,00,00,00,00,
166354000,00000288,false,0,8,00,00,00,00,00,1B,00,00,
166354000,00000154,false,0,8,04,17,14,00,00,F1,00,9D,
166354000,000001F8,false,0,8,01,EF,F0,96,D3,D7,00,00,
166354000,000005B8,false,0,8,00,2A,84,14,03,00,00,00,
166354000,00000228,false,0,4,40,C0,00,B2,00,00,00,00,
166354000,000002A8,false,0,8,00,00,00,00,00,00,00,1B,
166354000,00000106,false,0,8,00,60,00,00,FF,FF,00,65,
166354000,00000102,false,0,6,23,96,DA,FF,D0,FF,00,00,
166354000,00000116,false,0,6,00,90,F4,11,9B,47,00,00,
166354000,00000102,false,0,6,23,96,DA,FF,D0,FF,00,00,
166354000,00000125,false,0,4,FF,02,34,0D,00,00,00,00,
166354000,00000138,false,0,5,00,1D,53,00,00,00,00,00,
166364000,0000025A,false,0,8,00,00,00,00,00,00,00,00,
166364000,0000023A,false,0,8,00,38,00,12,00,00,00,00,
166364000,0000021A,false,0,8,FE,36,12,FE,69,05,07,AD,
166364000,0000022A,false,0,8,67,01,5E,1D,00,00,00,00,
166364000,00000210,false,0,7,00,00,E3,1D,1F,86,FF,00,
166364000,0000029A,false,0,8,01,36,FE,00,00,00,00,00,
166364000,00000106,false,0,8,00,80,00,00,FF,FF,00,85,
166364000,00000228,false,0,4,40,C0,10,7F,00,00,00,00,
166364000,0000028C,false,0,8,00,00,00,00,00,00,F0,00,
166364000,000002AC,false,0,8,13,00,2C,90,00,00,D6,CE,
166364000,000002BC,false,0,8,3F,40,41,78,7E,64,00,00,
166364000,00000154,false,0,8,04,17,14,00,00,00,00,00,
166364000,00000106,false,0,8,00,80,00,00,FF,FF,00,85,
166364000,000002CC,false,0,8,AB,7D,00,00,00,00,00,00,
166364000,00000116,false,0,6,00,90,F4,11,9C,48,00,00,
166364000,00000102,false,0,6,24,96,D3,FF,CF,FF,00,00,
166364000,000003A8,false,0,8,30,30,31,00,03,00,00,00,
166364000,0000048C,false,0,1,00,00,00,00,00,00,00,00,
166374000,00000258,false,0,8,2F,C8,36,D8,46,05,00,8F,
166374000,0000020A,false,0,8,00,01,01,82,31,40,11,11,
166374000,0000079C,false,0,8,05,00,00,00,00,00,00,00,
166374000,00000212,false,0,5,D8,00,12,71,00,00,00,00,
166374000,000006F2,false,0,8,03,4C,33,D3,DC,34,37,CD,
166374000,00000288,false,0,8,00,00,00,00,00,1B,F1,00,
166374000,00000222,false,0,7,00,00,16,96,00,10,70,00,
166374000,000002A2,false,0,7,00,00,16,96,00,10,70,00,
166374000,00000232,false,0,4,05,24,68,82,00,00,00,00,
166374000,00000402,false,0,2,10,00,00,00,00,00,00,00,
166374000,000003A2,false,0,8,FF,0F,FF,0F,00,00,00,32,
166374000,00000168,false,0,8,AE,0C,1C,7F,00,00,E0,9B,
166374000,00000108,false,0,4,00,00,0E,24,00,00,00,00,
166374000,00000168,false,0,8,AE,0C,1C,7F,00,00,E0,9B,
166374000,000001F8,false,0,8,01,EF,F0,A5,D2,E7,00,00,
166374000,000002A8,false,0,8,00,00,00,00,00,00,00,1B,
166374000,00000228,false,0,4,40,C0,20,35,00,00,00,00,
166374000,0000029C,false,0,8,00,08,00,00,87,01,00,14,
166374000,000002DC,false,0,8,00,00,00,00,00,00,00,00,
166374000,00000358,false,0,8,04,07,50,01,F0,00,00,30,
166374000,00000116,false,0,6,00,90,F4,11,9D,49,00,00,
166374000,00000106,false,0,8,00,A0,00,00,FF,FF,00,A5,
166374000,00000116,false,0,6,00,90,F4,11,9D,49,00,00,
166374000,00000102,false,0,6,0B,96,CF,FF,C6,FF,00,00,
166374000,0000026A,false,0,3,FA,01,00,00,00,00,00,00,
166384000,0000000E,false,0,8,20,6A,3F,FF,08,FF,20,A4,
166384000,00000228,false,0,4,40,C0,30,F8,00,00,00,00,
166384000,00000154,false,0,8,04,17,14,00,00,00,00,00,
166384000,00000106,false,0,8,00,C0,00,00,FF,FF,00,C5,
166384000,00000102,false,0,6,16,96,D2,FF,97,FF,00,00,
166384000,00000126,false,0,7,02,03,00,00,00,48,09,00,
166384000,00000102,false,0,6,16,96,D2,FF,97,FF,00,00,
166384000,000005E8,false,0,6,00,00,00,00,00,00,00,00,
166394000,0000000E,false,0,8,20,6A,3F,FF,08,FF,30,69,
166394000,00000288,false,0,8,00,00,00,00,00,1B,00,00,
166394000,00000108,false,0,4,00,00,0F,25,00,00,00,00,
166394000,00000168,false,0,8,B0,0C,1C,7F,00,00,F0,AD,
166394000,000001F8,false,0,8,01,EF,F0,B5,D2,F7,00,00,
166394000,00000154,false,0,8,04,17,14,00,00,00,00,00,
166394000,00000228,false,0,4,40,C0,40,A1,00,00,00,00,
166394000,00000154,false,0,8,04,17,14,00,00,00,00,00,
166394000,00000106,false,0,8,00,E0,00,00,FF,FF,00,E5,
166394000,00000754,false,0,8,65,FD,FF,00,00,00,00,00,
166394000,00000116,false,0,6,00,90,F4,11,9F,4B,00,00,
166394000,00000102,false,0,6,09,96,D6,FF,93,FF,00,00,
166394000,00000754,false,0,8,67,00,95,00,00,00,00,00,
166394000,00000368,false,0,8,00,5A,1F,00,00,08,00,FF,
166404000,00000754,false,0,8,0A,00,00,00,00,00,00,00,
166404000,00000754,false,0,8,64,00,00,00,00,00,00,00,
166404000,00000228,false,0,4,40,C0,50,6C,00,00,00,00,
166404000,00000268,false,0,8,55,00,3C,02,BD,07,36,00,
166404000,0000000E,false,0,8,20,6A,3F,FF,08,FF,40,30,
166404000,0000036C,false,0,8,00,00,00,00,00,00,00,00,
166404000,0000020C,false,0,8,00,00,00,00,00,00,F0,00,
166404000,0000022C,false,0,8,00,00,17,8F,00,00,D6,CE,
166404000,0000023C,false,0,8,3F,40,41,78,7E,64,00,00,
166404000,00000398,false,0,8,55,53,00,00,00,F1,00,30,
166404000,00000116,false,0,6,00,90,F4,11,90,3C,00,00,
166404000,0000040C,false,0,1,00,00,00,00,00,00,00,00,
166404000,00000154,false,0,8,04,17,14,00,00,00,00,00,
166404000,00000248,false,0,7,30,30,1D,8C,01,15,00,00,
166404000,00000106,false,0,8,00,00,00,00,FF,FF,00,05,
166404000,0000051C,false,0,8,01,00,00,00,FE,00,00,09,
166404000,00000102,false,0,6,16,96,DC,FF,98,FF,00,00,
166404000,00000116,false,0,6,00,90,F4,11,90,3C,00,00,
166404000,0000071C,false,0,8,03,00,00,00,00,00,00,00,
166414000,000002A8,false,0,8,00,00,00,00,00,00,00,1B,
166414000,0000020E,false,0,8,88,10,00,13,BB,00,06,00,
166414000,0000040E,false,0,1,00,00,00,00,00,00,00,00,
166414000,00000288,false,0,8,00,00,00,00,00,1B,00,00,
166414000,00000108,false,0,4,00,00,00,16,00,00,00,00,
166414000,00000168,false,0,8,B1,0C,1C,7F,00,00,00,BE,
166414000,000001F8,false,0,8,01,EF,F0,C6,D3,07,00,00,
166414000,000002C8,false,0,8,6E,80,03,7B,00,00,90,C6,
166414000,0000037C,false,0,8,00,00,00,00,00,00,00,00,
166414000,000002C8,false,0,8,6E,80,03,7B,00,00,90,C6,
166414000,00000228,false,0,4,40,C0,60,26,00,00,00,00,
166414000,00000154,false,0,8,04,17,14,00,00,00,00,00,
166414000,00000106,false,0,8,00,20,00,00,FF,FF,00,25,
166414000,00000116,false,0,6,00,90,F4,11,91,3D,00,00,
166414000,00000102,false,0,6,09,96,E1,FF,9E,FF,00,00,
166424000,0000000E,false,0,8,20,6A,3F,FF,08,FF,60,B7,
166424000,00000228,false,0,4,40,C0,70,EB,00,00,00,00,
166424000,000003D8,false,0,3,86,06,00,00,00,00,00,00,
166424000,00000228,false,0,4,40,C0,70,EB,00,00,00,00,
166424000,00000408,false,0,1,B0,00,00,00,00,00,00,00,
166424000,00000154,false,0,8,04,17,14,00,00,00,00,00,
166424000,00000106,false,0,8,00,40,00,00,FF,FF,00,45,
166424000,00000116,false,0,6,00,90,F4,11,92,3E,00,00,
166424000,00000102,false,0,6,24,96,DE,FF,D0,FF,00,00,
166434000,0000000E,false,0,8,20,6A,3F,FF,08,FF,70,7A,
166434000,00000108,false,0,4,00,00,01,17,00,00,00,00,
166434000,00000288,false,0,8,00,00,00,00,00,1B,00,00,
166434000,00000106,false,0,8,00,60,00,00,FF,F1,00,04,
166434000,000001F8,false,0,8,01,EF,F0,D6,D3,17,00,00,
166434000,000002A8,false,0,8,00,00,00,00,00,00,00,1B,
166434000,0000035C,false,0,8,00,00,00,00,00,00,00,00,
166434000,00000228,false,0,4,40,C0,80,94,00,00,00,00,
166434000,00000154,false,0,8,04,17,14,00,00,00,00,00,
166434000,00000116,false,0,6,00,90,F4,11,93,3F,00,00,
166434000,00000256,false,0,8,81,02,00,30,00,90,00,9B,
166434000,00000116,false,0,6,00,90,F4,11,93,3F,00,00,
166434000,00000102,false,0,6,2E,96,D8,FF,CF,FF,00,00,
166434000,00000266,false,0,8,85,04,00,00,00,70,0A,4B,
166444000,0000000E,false,0,8,20,6B,3F,FF,08,FF,80,43,
166444000,0000032C,false,0,8,00,00,00,00,00,00,00,00,
166444000,0000021C,false,0,8,00,08,00,00,86,01,00,14,
166444000,00000228,false,0,4,40,C0,90,59,00,00,00,00,
166444000,00000106,false,0,8,00,80,00,00,FF,FF,00,85,
166444000,00000154,false,0,8,04,17,14,00,00,00,00,00,
166444000,00000106,false,0,8,00,80,00,00,FF,FF,00,85,
166444000,00000116,false,0,6,00,90,F4,11,94,40,00,00,
166444000,00000102,false,0,6,23,96,D0,FF,CC,FF,00,00,
166454000,00000238,false,0,8,00,FF,00,00,00,00,D1,E6,
166454000,0000000E,false,0,8,20,6B,3F,FF,08,FF,90,8E,
166454000,0000028A,false,0,8,0A,00,FF,1F,00,01,00,00,
166454000,0000032A,false,0,8,17,17,12,00,64,00,1B,00,
166454000,00000108,false,0,4,00,00,02,18,00,00,00,00,
166454000,00000288,false,0,8,00,00,00,00,00,1B,00,00,
166454000,00000138,false,0,5,00,1E,54,00,00,00,00,00,
166454000,000001F8,false,0,8,01,EF,F0,E6,D3,27,00,00,
166454000,000002A8,false,0,8,00,00,00,00,00,00,00,1B,
166454000,0000033C,false,0,8,00,55,55,55,01,00,00,00,
166454000,00000228,false,0,4,40,C0,A0,13,00,00,00,00,
166454000,00000125,false,0,4,FF,02,35,0E,00,00,00,00,
166454000,00000106,false,0,8,00,A0,00,00,FF,FF,F1,00,
166454000,00000106,false,0,8,00,A0,00,00,FF,FF,00,A5,
166454000,00000116,false,0,6,00,90,F4,11,95,41,00,00,
166454000,00000102,false,0,6,0A,96,D0,FF,95,FF,00,00,
166464000,0000025A,false,0,8,00,00,00,00,00,00,00,00,
166464000,0000023A,false,0,8,00,38,00,12,00,00,00,00,
166464000,0000021A,false,0,8,FE,36,13,FE,69,05,07,AD,
166464000,0000022A,false,0,8,67,01,5E,1D,00,00,00,00,
166464000,00000210,false,0,7,00,00,E3,1D,1F,86,FF,00,
166464000,0000029A,false,0,8,01,36,FE,00,00,00,00,00,
166464000,00000154,false,0,8,04,17,14,00,00,00,00,00,
166464000,00000228,false,0,4,40,C0,B0,DE,00,00,00,00,
166464000,0000028C,false,0,8,00,00,00,00,00,00,F0,00,
166464000,000002AC,false,0,8,0C,00,28,90,00,00,D6,CE,
166464000,000002BC,false,0,8,3F,40,41,78,7E,64,00,00,
166464000,00000106,false,0,8,00,C0,00,00,FF,FF,00,C5,
166464000,000002CC,false,0,8,AB,7D,00,00,00,00,00,00,
166464000,00000116,false,0,6,00,90,F4,11,96,42,00,00,
166464000,000002CC,false,0,8,AB,7D,00,00,00,00,00,00,
166464000,00000102,false,0,6,08,96,D4,FF,96,FF,00,00,
166464000,000003A8,false,0,8,30,30,31,00,03,00,00,00,
166464000,0000048C,false,0,1,00,00,00,00,00,00,00,00,
166464000,00000258,false,0,8,2F,C8,36,D8,46,05,00,8F,
166474000,0000020A,false,0,8,00,01,01,82,41,40,11,11,
166474000,0000079C,false,0,8,06,00,48,00,04,00,00,40,
166474000,00000212,false,0,5,D8,00,12,71,00,00,00,00,
166474000,000006F2,false,0,8,04,4D,B3,D3,FC,34,2B,CD,
166474000,00000288,false,0,8,00,00,00,00,00,1B,F1,00,
166474000,00000222,false,0,7,00,00,13,96,00,10,70,00,
166474000,000002A2,false,0,7,00,00,13,96,00,10,70,00,
166474000,00000232,false,0,4,05,24,68,82,00,00,00,00,
166474000,00000402,false,0,2,10,00,00,00,00,00,00,00,
166474000,000003A2,false,0,8,FF,0F,FF,0F,00,00,00,32,
166474000,00000168,false,0,8,B5,0C,1C,7F,00,00,30,F2,
166474000,00000108,false,0,4,00,00,03,19,00,00,00,00,
166474000,00000168,false,0,8,B5,0C,1C,7F,00,00,30,F2,
166474000,000001F8,false,0,8,01,EF,F0,F6,D3,37,00,00,
166474000,000002A8,false,0,8,00,00,00,00,00,00,00,1B,
166474000,00000358,false,0,8,04,07,50,01,F0,00,00,30,
166474000,00000228,false,0,4,40,C0,C0,87,00,00,00,00,
166474000,0000029C,false,0,8,00,08,00,00,87,01,00,14,
166474000,000002DC,false,0,8,00,00,00,00,00,00,00,00,
166474000,00000154,false,0,8,04,17,14,00,00,00,00,00,
166474000,00000106,false,0,8,00,E0,00,00,FF,FF,00,E5,
166474000,00000116,false,0,6,00,90,F4,11,97,43,00,00,
166474000,00000102,false,0,6,09,96,D9,FF,98,FF,00,00,
166474000,0000026A,false,0,3,FA,01,00,00,00,00,00,00,
166484000,0000000E,false,0,8,20,6B,3F,FF,08,FF,C0,50,
166484000,00000228,false,0,4,40,C0,D0,4A,00,00,00,00,
166484000,00000106,false,0,8,00,00,00,00,FF,FF,00,05,
166484000,00000154,false,0,8,04,17,14,00,00,00,00,00,
166484000,00000102,false,0,6,16,96,E1,FF,96,FF,00,00,
166484000,00000126,false,0,7,02,03,00,00,00,48,09,00,
166484000,00000102,false,0,6,16,96,E1,FF,96,FF,00,00,
166494000,0000000E,false,0,8,20,6B,3F,FF,08,FF,D0,9D,
166494000,00000288,false,0,8,00,00,00,00,00,1B,00,00,
166494000,00000108,false,0,4,00,00,04,1A,00,00,00,00,
166494000,00000168,false,0,8,B6,0C,1C,7F,00,00,40,03,
166494000,000001F8,false,0,8,01,EF,F0,07,D4,47,00,00,
166494000,000002A8,false,0,8,00,00,00,00,00,00,00,1B,
166494000,00000754,false,0,8,65,FD,FF,00,00,F1,00,88,
166494000,00000754,false,0,8,65,FD,FF,00,00,00,00,00,
166494000,00000106,false,0,8,00,20,00,00,FF,FF,00,25,
166494000,00000116,false,0,6,00,90,F4,11,99,45,00,00,
166494000,00000102,false,0,6,15,96,DF,FF,CD,FF,00,00,
166494000,00000368,false,0,8,00,5A,1F,00,00,08,00,FF,
166504000,0000000E,false,0,8,20,6B,3F,FF,08,FF,E0,D7,
166504000,00000268,false,0,8,55,00,1D,02,BD,07,36,00,
166504000,0000023C,false,0,8,3F,40,41,78,7E,64,00,00,
166504000,0000022C,false,0,8,00,00,16,8F,00,00,D6,CE,
166504000,00000154,false,0,8,04,17,14,00,00,00,00,00,
166504000,00000228,false,0,4,40,C0,F0,CD,00,00,00,00,
166504000,0000024C,false,0,8,AB,7D,00,00,00,00,00,00,
166504000,0000040C,false,0,1,00,00,00,00,00,00,00,00,
166504000,0000053C,false,0,8,0A,01,12,00,09,00,06,00,
166504000,0000071C,false,0,8,04,00,00,00,00,00,00,00,
166504000,00000106,false,0,8,00,40,00,00,FF,FF,00,45,
166504000,00000248,false,0,7,30,30,1D,8C,01,15,00,00,
166504000,00000116,false,0,6,00,90,F4,11,9A,46,00,00,
166504000,00000248,false,0,7,30,30,1D,8C,01,15,00,00,
166504000,00000102,false,0,6,15,96,DA,FF,D0,FF,00,00,
166504000,00000754,false,0,8,67,00,95,00,00,00,00,00,
166504000,00000754,false,0,8,66,00,00,00,00,00,00,00,
166514000,00000754,false,0,8,64,00,00,00,00,00,00,00,
166514000,00000754,false,0,8,0A,00,00,00,00,00,00,00,
166514000,0000000E,false,0,8,20,6B,3F,FF,08,FF,F0,1A,
166514000,00000288,false,0,8,00,00,00,00,00,1B,00,00,
166514000,0000040E,false,0,1,00,00,00,00,00,00,00,00,
166514000,00000106,false,0,8,00,60,00,00,FF,FF,00,65,
166514000,00000108,false,0,4,00,00,05,1B,00,00,00,00,
166514000,00000168,false,0,8,B7,0C,1C,7F,00,00,50,14,
166514000,000001F8,false,0,8,01,EF,F0,16,D3,57,00,00,
166514000,000002A8,false,0,8,00,00,00,00,00,00,00,1B,
166514000,00000228,false,0,4,40,C0,00,B2,00,00,00,00,
166514000,00000154,false,0,8,04,17,14,00,00,00,00,00,
166514000,000002C8,false,0,8,6E,80,03,7B,00,00,A0,D6,
166514000,00000116,false,0,6,00,90,F4,11,9B,47,00,00,
166514000,000002C8,false,0,8,6E,80,03,7B,00,00,A0,D6,
166514000,00000102,false,0,6,21,96,D3,FF,CE,FF,00,00,
166524000,0000000E,false,0,8,20,6B,3F,FF,08,FF,00,65,
166524000,000003D8,false,0,3,86,06,00,00,00,00,00,00,
166524000,00000408,false,0,1,C0,00,00,00,00,00,00,00,
166524000,00000228,false,0,4,40,C0,10,7F,00,00,00,00,
166524000,00000106,false,0,8,00,80,00,00,FF,FF,00,85,
166524000,00000512,false,0,8,01,00,00,00,FE,00,00,1F,
166524000,00000116,false,0,6,00,90,F4,11,9C,48,00,00,
166524000,00000512,false,0,8,01,00,00,00,FE,00,00,1F,
166524000,00000102,false,0,6,07,96,D0,FF,C0,FF,00,00,
166524000,00000302,false,0,3,60,4B,0D,00,00,00,00,00,
166524000,00000342,false,0,8,00,00,00,00,00,00,00,00,
166534000,00000382,false,0,8,ED,F6,09,28,9F,00,A0,24,
166534000,00000352,false,0,8,00,00,00,00,00,00,00,00,
166534000,00000312,false,0,8,00,00,19,34,32,30,ED,27,
166534000,00000362,false,0,8,00,00,00,00,00,00,00,00,
166534000,00000332,false,0,8,D5,07,85,7E,D2,77,89,7C,
166534000,000003F2,false,0,6,EF,95,FF,71,FF,51,00,00,
166534000,00000522,false,0,8,00,00,00,00,00,18,FC,00,
166534000,00000372,false,0,8,00,00,00,00,00,00,00,00,
166534000,000003D2,false,0,8,7C,F8,4F,00,33,07,54,00,
166534000,000003C2,false,0,8,00,00,00,00,00,00,00,00,
166534000,00000242,false,0,8,00,00,00,00,00,00,00,00,
166534000,000003E2,false,0,8,00,00,00,00,00,00,00,00,
166534000,00000412,false,0,6,08,0A,C7,56,6A,00,00,00,
166534000,00000322,false,0,8,00,00,00,00,00,00,00,00,
166534000,00000412,false,0,6,08,0A,C7,56,6A,00,00,00,
166534000,0000000E,false,0,8,20,6B,3F,FF,08,FF,10,A8,
166534000,000007E2,false,0,8,4E,00,00,00,00,00,00,00,
166534000,00000288,false,0,8,00,00,00,00,00,1B,00,00,
166534000,00000108,false,0,4,00,00,06,1C,00,00,00,00,
166534000,00000168,false,0,8,B8,0C,1C,7F,00,00,60,25,
166534000,000001F8,false,0,8,01,EF,F0,25,D2,67,00,00,
166534000,00000154,false,0,8,04,17,14,00,00,00,00,00,
166534000,00000228,false,0,4,40,C0,20,35,00,00,00,00,
166534000,00000154,false,0,8,04,17,14,00,00,00,00,00,
166534000,00000106,false,0,8,00,A0,00,00,FF,FF,00,A5,
166534000,00000256,false,0,8,81,02,00,30,00,A0,00,AB,
166534000,00000116,false,0,6,00,90,F4,11,9D,49,00,00,
166534000,00000266,false,0,8,85,04,00,00,00,70,0A,4B,
166534000,00000102,false,0,6,07,96,D2,FF,91,FF,00,00,
166544000,00000278,false,0,8,12,00,40,02,04,00,A0,FE,
166544000,00000228,false,0,4,40,C0,30,F8,00,00,00,00,
166544000,0000021C,false,0,8,00,08,00,00,86,01,00,14,
166544000,00000228,false,0,4,40,C0,30,F8,00,00,00,00,
166544000,00000238,false,0,8,00,FF,00,00,00,00,E1,AC,
166544000,0000025C,false,0,8,01,02,26,9A,15,00,66,04,
166544000,00000154,false,0,8,04,17,14,00,00,00,00,00,
166544000,00000106,false,0,8,00,C0,00,00,FF,FF,00,C5,
166544000,00000116,false,0,6,00,90,F4,11,9E,4A,00,00,
166544000,00000102,false,0,6,14,96,D6,FF,94,FF,00,00,
166554000,0000033A,false,0,8,6B,92,FF,7F,00,00,11,11,
166554000,0000028A,false,0,8,0A,00,FF,1F,00,01,00,00,
166554000,00000228,false,0,4,40,C0,40,A1,00,00,00,00,
166554000,000004BA,false,0,8,00,00,00,00,00,00,00,00,
166554000,00000288,false,0,8,00,00,00,00,00,1B,00,00,
166554000,00000108,false,0,4,00,00,07,1D,00,00,00,00,
166554000,00000168,false,0,8,BA,0C,1C,7F,00,00,70,37,
166554000,000001F8,false,0,8,01,EF,F0,35,D2,77,00,00,
166554000,000002A8,false,0,8,00,00,00,00,00,00,00,1B,
166554000,00000106,false,0,8,00,E0,00,00,FF,F1,00,17,
166554000,00000106,false,0,8,00,E0,00,00,FF,FF,00,E5,
166554000,00000116,false,0,6,00,90,F4,11,9F,4B,00,00,
166554000,00000102,false,0,6,07,96,DE,FF,9A,FF,00,00,
166564000,0000025A,false,0,8,00,00,00,00,00,00,00,00,
166564000,00000125,false,0,4,FF,02,36,0F,00,00,00,00,
166564000,0000023A,false,0,8,00,38,00,12,00,00,00,00,
166564000,00000138,false,0,5,00,1F,55,00,00,00,00,00,
166564000,0000027A,false,0,7,30,30,0D,8C,09,15,00,00,
166564000,0000021A,false,0,8,FE,36,12,FE,69,05,07,AD,
166564000,0000027A,false,0,7,30,30,0D,8C,09,15,00,00,
166564000,0000022A,false,0,8,67,01,5E,1D,00,00,00,00,
166564000,00000210,false,0,7,00,00,E3,1D,1E,86,FF,00,
166564000,0000000E,false,0,8,20,6B,3F,FF,08,FF,40,76,
166564000,00000228,false,0,4,40,C0,50,6C,00,00,00,00,
166564000,0000028C,false,0,8,00,00,00,00,00,00,F0,00,
166564000,000002AC,false,0,8,0D,00,26,90,00,00,D6,CE,
166564000,00000106,false,0,8,00,00,00,00,FF,FF,00,05,
166564000,00000154,false,0,8,04,17,14,00,00,00,00,00,
166564000,00000106,false,0,8,00,00,00,00,FF,FF,00,05,
166564000,000002CC,false,0,8,AB,7D,00,00,00,00,00,00,
166564000,00000102,false,0,6,14,96,E2,FF,A2,FF,00,00,
166564000,00000116,false,0,6,00,90,F4,11,90,3C,00,00,
166564000,000003A8,false,0,8,30,30,31,00,03,00,00,00,
166564000,0000048C,false,0,1,00,00,00,00,00,00,00,00,
166574000,00000258,false,0,8,2F,C8,36,D8,46,05,00,8F,
166574000,00000202,false,0,8,FD,5E,45,9D,C4,09,1E,2D,
166574000,0000079C,false,0,8,07,00,00,00,00,04,A3,00,
166574000,00000202,false,0,8,FD,5E,45,9D,C4,09,1E,2D,
166574000,000006F2,false,0,8,05,4C,33,D3,EC,34,37,CD,
166574000,00000212,false,0,5,D8,00,12,71,00,00,00,00,
166574000,0000000E,false,0,8,20,6B,3F,FF,08,FF,50,BB,
166574000,00000222,false,0,7,00,00,14,96,00,10,70,00,
166574000,000002A2,false,0,7,00,00,14,96,00,10,70,00,
166574000,00000232,false,0,4,00,24,68,82,00,00,00,00,
166574000,00000288,false,0,8,00,00,00,F1,00,41,B8,ED,
166574000,00000288,false,0,8,00,00,00,00,00,1B,00,00,
166574000,00000108,false,0,4,00,00,08,1E,00,00,00,00,
166574000,00000168,false,0,8,BD,0C,1C,7F,00,00,80,4A,
166574000,000001F8,false,0,8,01,EF,F0,46,D3,87,00,00,
166574000,000002A8,false,0,8,00,00,00,00,00,00,00,1B,
166574000,00000228,false,0,4,40,C0,60,26,00,00,00,00,
166574000,0000029C,false,0,8,00,08,00,00,87,01,00,14,
166574000,000002DC,false,0,8,00,00,00,00,00,00,00,00,
166574000,00000358,false,0,8,04,07,50,01,F0,00,00,30,
166574000,00000154,false,0,8,04,17,14,00,00,00,00,00,
166574000,00000106,false,0,8,00,20,00,00,FF,FF,00,25,
166574000,00000116,false,0,6,00,90,F4,11,91,3D,00,00,
166574000,00000102,false,0,6,15,96,DD,FF,CE,FF,00,00,
166574000,0000026A,false,0,3,FA,01,00,00,00,00,00,00,
166584000,0000000E,false,0,8,20,6B,3F,FF,08,FF,60,F1,
166584000,00000228,false,0,4,40,C0,70,EB,00,00,00,00,
166584000,00000116,false,0,6,00,90,F4,11,92,3E,00,00,
166584000,00000106,false,0,8,00,40,00,00,FF,FF,00,45,
166584000,00000116,false,0,6,00,90,F4,11,92,3E,00,00,
166584000,00000126,false,0,7,02,03,00,00,00,48,09,00,
166584000,00000102,false,0,6,21,96,D6,FF,CE,FF,00,00,
166594000,0000000E,false,0,8,20,6B,3F,FF,08,FF,70,3C,
166594000,00000288,false,0,8,00,00,00,00,00,1B,00,00,
166594000,00000108,false,0,4,00,00,09,1F,00,00,00,00,
166594000,00000168,false,0,8,BF,0C,1C,7F,00,00,90,5C,
166594000,00000228,false,0,4,40,C0,80,94,00,00,00,00,
166594000,000002A8,false,0,8,00,00,00,00,00,00,00,1B,
166594000,00000708,false,0,8,00,00,00,00,00,F1,00,2E,
166594000,00000754,false,0,8,65,FD,FF,00,00,00,00,00,
166594000,00000106,false,0,8,00,60,00,00,FF,FF,00,65,
166594000,00000116,false,0,6,00,90,F4,11,93,3F,00,00,
166594000,00000102,false,0,6,13,96,CF,FF,CF,FF,00,00,
166594000,00000368,false,0,8,00,5A,1F,00,00,08,00,FF,
166594000,00000708,false,0,8,00,00,00,00,00,00,00,00,
166604000,00000248,false,0,7,30,30,1D,8C,01,15,00,00,
166604000,0000040C,false,0,1,00,00,00,00,00,00,00,00,
166604000,00000268,false,0,8,55,00,1D,02,BD,07,36,00,
166604000,0000020C,false,0,8,00,00,00,00,00,00,F0,00,
166604000,0000022C,false,0,8,00,00,22,8F,00,00,D6,CE,
166604000,0000023C,false,0,8,3F,40,41,78,7E,64,00,00,
166604000,00000228,false,0,4,40,C0,90,59,00,00,00,00,
166604000,0000024C,false,0,8,AB,7D,00,00,00,00,00,00,
166604000,00000154,false,0,8,04,17,F1,00,50,2D,EE,09,
166604000,00000154,false,0,8,04,17,14,00,00,00,00,00,
166604000,0000071C,false,0,8,05,00,00,00,00,00,00,00,
166604000,00000106,false,0,8,00,80,00,00,FF,FF,00,85,
166604000,00000754,false,0,8,67,00,95,00,00,00,00,00,
166604000,00000102,false,0,6,14,96,D1,FF,9B,FF,00,00,
166604000,00000116,false,0,6,00,90,F4,11,94,40,00,00,
166604000,00000754,false,0,8,66,00,00,00,00,00,00,00,
166614000,0000000E,false,0,8,20,6A,3F,FF,08,FF,90,C8,
166614000,00000754,false,0,8,0A,00,00,00,00,00,00,00,
166614000,000002A8,false,0,8,00,00,00,00,00,00,00,1B,
166614000,0000020E,false,0,8,88,10,00,13,BB,00,06,00,
166614000,0000040E,false,0,1,00,00,00,00,00,00,00,00,
166614000,00000288,false,0,8,00,00,00,00,00,1B,00,00,
166614000,00000108,false,0,4,00,00,0A,20,00,00,00,00,
166614000,00000168,false,0,8,C2,0C,1C,7F,00,00,A0,6F,
166614000,000001F8,false,0,8,01,EF,F0,66,D3,A7,00,00,
166614000,00000106,false,0,8,00,A0,00,00,FF,FF,00,A5,
166614000,00000228,false,0,4,40,C0,A0,13,00,00,00,00,
166614000,00000106,false,0,8,00,A0,00,00,FF,FF,00,A5,
166614000,00000154,false,0,8,04,17,14,00,00,00,00,00,
166614000,00000116,false,0,6,00,90,F4,11,95,41,00,00,
166614000,000002C8,false,0,8,6E,80,03,7B,00,00,B0,E6,
166614000,00000102,false,0,6,07,96,D5,FF,9C,FF,00,00,
166624000,00000798,false,0,8,00,00,00,00,00,00,00,00,
166624000,0000000E,false,0,8,20,6A,3F,FF,08,FF,A0,82,
166624000,00000408,false,0,1,D0,00,00,00,00,00,00,00,
166624000,000007B8,false,0,8,00,00,00,00,00,00,00,00,
166624000,00000408,false,0,1,D0,00,00,00,00,00,00,00,
166624000,00000228,false,0,4,40,C0,B0,DE,00,00,00,00,
166624000,00000154,false,0,8,04,17,14,00,00,00,00,00,
166624000,00000106,false,0,8,00,C0,00,00,FF,FF,00,C5,
166624000,00000116,false,0,6,00,90,F4,11,96,42,00,00,
166624000,00000102,false,0,6,07,96,DA,FF,96,FF,00,00,
166634000,0000000E,false,0,8,20,6A,3F,FF,08,FF,B0,4F,
166634000,00000288,false,0,8,00,00,00,00,00,1B,00,00,
166634000,00000108,false,0,4,00,00,0B,21,00,00,00,00,
166634000,00000154,false,0,8,04,17,14,00,00,00,00,00,
166634000,00000168,false,0,8,C5,0C,1C,7F,00,00,B0,82,
166634000,000001F8,false,0,8,01,EF,F0,76,D3,B7,00,00,
166634000,000002A8,false,0,8,00,00,00,00,00,00,00,1B,
166634000,00000228,false,0,4,40,C0,C0,87,00,00,00,00,
166634000,000007C8,false,0,8,00,00,00,00,00,00,00,00,
166634000,00000106,false,0,8,00,E0,00,00,FF,FF,00,E5,
166634000,00000116,false,0,6,00,90,F4,11,97,43,00,00,
166634000,00000256,false,0,8,81,02,00,30,00,B0,00,BB,
166634000,00000116,false,0,6,00,90,F4,11,97,43,00,00,
166634000,00000102,false,0,6,13,96,E0,FF,99,FF,00,00,
166634000,00000266,false,0,8,85,04,00,00,00,70,0A,4B,
166644000,0000000E,false,0,8,20,6A,3F,FF,08,FF,C0,16,
166644000,0000021C,false,0,8,00,08,00,00,86,01,00,14,
166644000,00000228,false,0,4,40,C0,D0,4A,00,00,00,00,
166644000,0000025C,false,0,8,01,02,26,9A,79,00,6C,04,
166644000,00000106,false,0,8,00,00,00,00,FF,FF,00,05,
166644000,00000154,false,0,8,04,17,14,00,00,00,00,00,
166644000,00000106,false,0,8,00,00,00,00,FF,FF,00,05,
166644000,00000238,false,0,8,00,FF,00,00,00,00,F1,61,
166644000,00000116,false,0,6,00,90,F4,11,98,44,00,00,
166644000,00000102,false,0,6,20,96,DF,FF,D1,FF,00,00,
166654000,0000000E,false,0,8,20,6A,3F,FF,08,FF,D0,DB,
166654000,0000028A,false,0,8,0A,00,FF,1F,00,01,00,00,
166654000,0000036A,false,0,8,FF,07,00,00,9F,9F,80,80,
166654000,00000108,false,0,4,00,00,0C,22,00,00,00,00,
166654000,00000288,false,0,8,00,00,00,00,00,1B,00,00,
166654000,000003C8,false,0,8,FF,FF,34,C1,00,F1,00,7D,
166654000,000001F8,false,0,8,01,EF,F0,86,D3,C7,00,00,
166654000,000002A8,false,0,8,00,00,00,00,00,00,00,1B,
166654000,00000228,false,0,4,40,C0,E0,00,00,00,00,00,
166654000,00000125,false,0,4,FF,03,28,00,00,00,00,00,
166654000,00000138,false,0,5,00,10,46,00,00,00,00,00,
166654000,00000154,false,0,8,04,17,14,00,00,00,00,00,
166654000,00000106,false,0,8,00,20,00,00,FF,FF,00,25,
166654000,00000154,false,0,8,04,17,14,00,00,00,00,00,
166654000,00000116,false,0,6,00,90,F4,11,99,45,00,00,
166654000,00000102,false,0,6,20,96,DA,FF,CE,FF,00,00,
166664000,0000025A,false,0,8,00,00,00,00,00,00,00,00,
166664000,0000023A,false,0,8,00,38,00,12,00,00,00,00,
166664000,0000021A,false,0,8,FE,36,12,FE,69,05,07,AD,
166664000,0000022A,false,0,8,67,01,5E,1D,00,00,00,00,
166664000,00000210,false,0,7,00,00,E3,1D,1F,86,FF,00,
166664000,0000029A,false,0,8,01,36,FE,00,00,00,00,00,
166664000,000002BC,false,0,8,3F,40,41,78,7E,64,00,00,
166664000,00000228,false,0,4,40,C0,F0,CD,00,00,00,00,
166664000,0000028C,false,0,8,00,00,00,00,00,00,F0,00,
166664000,000002AC,false,0,8,12,00,28,90,00,00,D6,CE,
166664000,00000154,false,0,8,04,17,14,00,00,00,00,00,
166664000,00000106,false,0,8,00,40,00,00,FF,FF,00,45,
166664000,000002CC,false,0,8,AB,7D,00,00,00,00,00,00,
166664000,00000116,false,0,6,00,90,F4,11,9A,46,00,00,
166664000,000002CC,false,0,8,AB,7D,00,00,00,00,00,00,
166664000,00000102,false,0,6,20,96,D0,FF,D2,FF,00,00,
166664000,000003A8,false,0,8,30,30,31,00,03,00,00,00,
166664000,0000048C,false,0,1,00,00,00,00,00,00,00,00,
166664000,00000258,false,0,8,2F,C8,36,D8,46,05,00,8F,
166674000,0000020A,false,0,8,00,01,01,82,61,40,11,11,
166674000,0000079C,false,0,8,08,00,00,00,08,00,00,00,
166674000,000006F2,false,0,8,06,4E,B3,D2,DC,34,33,CD,
166674000,00000202,false,0,8,FD,5E,45,9D,C4,09,1E,2D,
166674000,000003A2,false,0,8,FF,0F,FF,0F,00,00,00,32,
166674000,00000212,false,0,5,D8,00,12,71,00,00,00,00,
166674000,0000000E,false,0,8,20,6A,3F,FF,08,FF,F0,5C,
166674000,00000222,false,0,7,00,00,12,96,00,10,70,00,
166674000,000002A2,false,0,7,00,00,12,96,00,10,70,00,
166674000,00000232,false,0,4,07,24,68,82,00,00,00,00,
166674000,00000402,false,0,2,10,00,00,00,00,00,00,00,
166674000,00000108,false,0,4,00,00,0D,23,00,00,00,00,
166674000,00000288,false,0,8,00,00,00,00,00,1B,00,00,
166674000,00000108,false,0,4,00,00,0D,23,00,00,00,00,
166674000,00000168,false,0,8,CF,0C,1C,7F,00,00,D0,AC,
166674000,000001F8,false,0,8,01,EF,F0,96,D3,D7,00,00,
166674000,000002A8,false,0,8,00,00,00,00,00,00,00,1B,
166674000,00000228,false,0,4,40,C0,00,B2,00,00,00,00,
166674000,0000029C,false,0,8,00,08,00,00,87,01,00,14,
166674000,000002DC,false,0,8,00,00,00,00,00,00,00,00,
166674000,00000154,false,0,8,04,17,14,00,00,00,00,00,
166674000,00000106,false,0,8,00,60,00,00,FF,FF,00,65,
166674000,00000154,false,0,8,04,17,14,00,00,00,00,00,
166674000,00000116,false,0,6,00,90,F4,11,9B,47,00,00,
166674000,00000102,false,0,6,14,96,CF,FF,B1,FF,00,00,
166674000,0000026A,false,0,3,FA,01,00,00,00,00,00,00,
166684000,0000000E,false,0,8,20,6A,3F,FF,08,FF,00,23,
166684000,00000228,false,0,4,40,C0,10,7F,00,00,00,00,
166684000,00000154,false,0,8,04,17,14,00,00,00,00,00,
166684000,00000126,false,0,7,02,03,00,00,00,48,09,00,
166684000,00000116,false,0,6,00,90,F4,11,9C,48,00,00,
166684000,00000126,false,0,7,02,03,00,00,00,48,09,00,
166684000,00000102,false,0,6,15,96,D2,FF,96,FF,00,00,
166694000,0000000E,false,0,8,20,6A,3F,FF,08,FF,10,EE,
166694000,00000288,false,0,8,00,00,00,00,00,1B,00,00,
166694000,00000108,false,0,4,00,00,0E,24,00,00,00,00,
166694000,00000168,false,0,8,D5,0C,1C,7F,00,00,E0,C2,
166694000,000001F8,false,0,8,01,EF,F0,A6,D3,E7,00,00,
166694000,00000154,false,0,8,04,17,14,00,00,00,00,00,
166694000,00000228,false,0,4,40,C0,20,35,00,00,00,00,
166694000,00000154,false,0,8,04,17,14,00,00,00,00,00,
166694000,00000106,false,0,8,00,A0,00,00,FF,FF,00,A5,
166694000,00000754,false,0,8,65,FD,FF,00,00,00,00,00,
166694000,00000116,false,0,6,00,90,F4,11,9D,49,00,00,
166694000,00000102,false,0,6,21,96,D7,FF,98,FF,00,00,
166694000,00000754,false,0,8,67,00,95,00,00,00,00,00,
166694000,00000368,false,0,8,00,5A,1F,00,00,08,00,FF,
166704000,00000754,false,0,8,0A,00,00,00,00,00,00,00,
166704000,00000754,false,0,8,64,00,00,00,00,00,00,00,
166704000,0000023C,false,0,8,3F,40,41,78,7E,64,00,00,
166704000,0000000E,false,0,8,20,6A,3F,FF,08,FF,20,A4,
166704000,000005D8,false,0,4,F9,A7,75,00,00,00,00,00,
166704000,00000268,false,0,8,55,00,1D,02,BD,07,36,00,
166704000,000003B8,false,0,2,1A,23,00,00,00,00,00,00,
166704000,0000020C,false,0,8,00,00,00,00,00,00,F0,00,
166704000,0000022C,false,0,8,00,00,0D,8F,00,00,D6,CE,
166704000,00000248,false,0,7,30,30,1D,8C,01,15,00,00,
166704000,00000228,false,0,4,40,C0,30,F8,00,00,00,00,
166704000,00000248,false,0,7,30,30,1D,8C,01,15,00,00,
166704000,0000024C,false,0,8,AB,7D,00,00,00,00,00,00,
166704000,0000040C,false,0,1,00,00,00,00,00,00,00,00,
166704000,00000154,false,0,8,04,17,14,00,00,00,00,00,
166704000,0000071C,false,0,8,06,00,00,00,EB,FF,00,40,
166704000,00000106,false,0,8,00,C0,00,00,FF,FF,00,C5,
166704000,00000116,false,0,6,00,90,F4,11,9E,4A,00,00,
166704000,00000102,false,0,6,14,96,DF,FF,96,FF,00,00,
166714000,0000000E,false,0,8,20,6A,3F,FF,08,FF,30,69,
166714000,00000228,false,0,4,40,C0,40,A1,00,00,00,00,
166714000,0000040E,false,0,1,00,00,00,00,00,00,00,00,
166714000,00000288,false,0,8,00,00,00,00,00,1B,00,00,
166714000,00000108,false,0,4,00,00,0F,25,00,00,00,00,
166714000,00000168,false,0,8,DC,0C,1C,7F,00,00,F0,D9,
166714000,000001F8,false,0,8,01,EF,F0,B6,D3,F7,00,00,
166714000,000002A8,false,0,8,00,00,00,00,00,00,00,1B,
166714000,00000106,false,0,8,00,E0,00,00,FF,F1,00,FE,
166714000,00000106,false,0,8,00,E0,00,00,FF,FF,00,E5,
166714000,00000116,false,0,6,00,90,F4,11,9F,4B,00,00,
166714000,000002C8,false,0,8,6E,80,03,7B,00,00,C0,F6,
166714000,00000102,false,0,6,20,96,E0,FF,B0,FF,00,00,
166724000,0000000E,false,0,8,20,6A,3F,FF,08,FF,40,30,
166724000,000003D8,false,0,3,86,06,00,00,00,00,00,00,
166724000,00000408,false,0,1,E0,00,00,00,00,00,00,00,
166724000,00000106,false,0,8,00,00,00,00,FF,F1,00,D0,
166724000,00000106,false,0,8,00,00,00,00,FF,FF,00,05,
166724000,00000116,false,0,6,00,90,F4,11,90,3C,00,00,
166724000,00000102,false,0,6,1F,96,DC,FF,CD,FF,00,00,
166734000,0000000E,false,0,8,20,6A,3F,FF,08,FF,50,FD,
166734000,00000108,false,0,4,00,00,00,16,00,00,00,00,
166734000,00000278,false,0,8,12,00,40,02,04,00,C0,1E,
166734000,00000288,false,0,8,00,00,00,00,00,1B,00,00,
166734000,000002A8,false,0,8,00,00,00,00,00,00,00,1B,
166734000,000001F8,false,0,8,01,EF,F0,C6,D3,07,00,00,
166734000,00000102,false,0,6,1F,96,D6,FF,D4,FF,00,00,
166734000,00000228,false,0,4,40,C0,60,26,00,00,00,00,
166734000,00000558,false,0,8,32,39,66,33,31,64,33,00,
166734000,00000154,false,0,8,04,17,14,00,00,00,00,00,
166734000,00000106,false,0,8,00,20,00,00,FF,FF,00,25,
166734000,00000256,false,0,8,81,02,00,30,00,C0,00,CB,
166734000,00000116,false,0,6,00,90,F4,11,91,3D,00,00,
166734000,00000102,false,0,6,1F,96,D6,FF,D4,FF,00,00,
166734000,00000266,false,0,8,85,04,00,00,00,70,0A,4B,
166744000,00000238,false,0,8,00,FF,00,00,00,00,01,1E,
166744000,0000021C,false,0,8,00,08,00,00,86,01,00,14,
166744000,00000228,false,0,4,40,C0,70,EB,00,00,00,00,
166744000,0000025C,false,0,8,01,02,26,9A,5D,00,72,04,
166744000,00000154,false,0,8,04,17,14,00,00,00,00,00,
166744000,00000106,false,0,8,00,40,00,00,FF,FF,00,45,
166744000,00000116,false,0,6,00,90,F4,11,92,3E,00,00,
166744000,00000238,false,0,8,00,FF,00,00,00,00,01,1E,
166744000,00000102,false,0,6,07,96,CF,FF,CF,FF,00,00,
166754000,000001F8,false,0,8,01,EF,F0,D6,D3,17,00,00,
166754000,0000028A,false,0,8,0A,00,FF,1F,00,01,00,00,
166754000,0000037A,false,0,8,87,86,90,80,D7,E4,00,28,
166754000,0000066A,false,0,8,00,00,00,00,00,00,00,00,
166754000,00000288,false,0,8,00,00,00,00,00,1B,00,00,
166754000,00000108,false,0,4,00,00,01,17,00,00,00,00,
166754000,00000168,false,0,8,EC,0C,1C,7F,00,00,10,09,
166754000,00000228,false,0,4,40,C0,80,94,00,00,00,00,
166754000,000002A8,false,0,8,00,00,00,00,00,00,00,1B,
166754000,00000228,false,0,4,40,C0,80,94,00,00,00,00,
166754000,00000125,false,0,4,FF,02,28,01,00,00,00,00,
166754000,00000138,false,0,5,00,11,47,00,00,00,00,00,
166754000,00000748,false,0,8,00,00,00,00,00,00,00,00,
166754000,00000154,false,0,8,04,17,14,00,00,00,00,00,
166754000,00000106,false,0,8,00,60,00,00,FF,FF,00,65,
166754000,00000116,false,0,6,00,90,F4,11,93,3F,00,00,
166754000,00000102,false,0,6,14,96,D1,FF,91,FF,00,00,
166764000,0000025A,false,0,8,00,00,00,00,00,00,00,00,
166764000,00000228,false,0,4,40,C0,90,59,00,00,00,00,
166764000,0000021A,false,0,8,FE,36,12,FE,69,05,07,AD,
166764000,0000022A,false,0,8,67,01,5E,1D,00,00,00,00,
166764000,0000027A,false,0,7,30,30,0D,8C,09,15,00,00,
166764000,0000029A,false,0,8,01,36,FE,00,00,00,00,00,
166764000,00000210,false,0,7,00,00,E3,1D,1E,86,FF,00,
166764000,0000000E,false,0,8,20,6A,3F,FF,08,FF,80,05,
166764000,000002AC,false,0,8,0D,00,1F,90,00,F1,00,58,
166764000,000003A8,false,0,8,30,30,31,00,03,00,00,00,
166764000,00000154,false,0,8,04,17,14,00,00,00,00,00,
166764000,00000106,false,0,8,00,80,00,00,FF,FF,00,85,
166764000,000002BC,false,0,8,3F,40,41,78,7E,64,00,00,
166764000,00000116,false,0,6,00,90,F4,11,94,40,00,00,
166764000,000002CC,false,0,8,AB,7D,00,00,00,00,00,00,
166764000,00000102,false,0,6,16,96,D5,FF,98,FF,00,00,
166764000,00000258,false,0,8,2F,C8,36,D8,46,05,00,8F,
166764000,0000048C,false,0,1,00,00,00,00,00,00,00,00,
166764000,00000258,false,0,8,2F,C8,36,D8,46,05,00,8F,
166774000,0000020A,false,0,8,00,01,01,82,71,40,11,11,
166774000,000005AC,false,0,8,00,00,00,00,00,00,1A,00,
166774000,0000079C,false,0,8,09,00,08,00,00,00,08,00,
166774000,00000202,false,0,8,FD,5E,45,9D,C4,09,1E,2D,
166774000,000006F2,false,0,8,07,4E,B3,D3,CC,34,33,CD,
166774000,00000212,false,0,5,D8,00,12,71,00,00,00,00,
166774000,000002A2,false,0,7,00,00,13,96,00,10,70,00,
166774000,00000222,false,0,7,00,00,13,96,00,10,70,00,
166774000,000001F8,false,0,8,01,EF,F0,E6,D3,27,00,00,
166774000,00000402,false,0,2,10,00,00,00,00,00,00,00,
166774000,000003A2,false,0,8,FF,0F,FF,0F,00,00,00,32,
166774000,00000288,false,0,8,00,00,00,00,00,1B,00,00,
166774000,00000108,false,0,4,00,00,02,18,00,00,00,00,
166774000,00000168,false,0,8,F3,0C,1C,7F,00,00,20,20,
166774000,00000228,false,0,4,40,C0,A0,13,00,00,00,00,
166774000,000002A8,false,0,8,00,00,00,00,00,00,00,1B,
166774000,00000228,false,0,4,40,C0,A0,13,00,00,00,00,
166774000,0000029C,false,0,8,00,08,00,00,87,01,00,14,
166774000,000002DC,false,0,8,00,00,00,00,00,00,00,00,
166774000,00000358,false,0,8,04,07,50,01,F0,00,00,30,
166774000,00000154,false,0,8,04,17,14,00,00,00,00,00,
166774000,00000106,false,0,8,00,A0,00,00,FF,FF,00,A5,
166774000,00000116,false,0,6,00,90,F4,11,95,41,00,00,
166774000,00000102,false,0,6,07,96,DA,FF,97,FF,00,00,
166774000,0000026A,false,0,3,FA,01,00,00,00,00,00,00,
166784000,0000000E,false,0,8,20,6A,3F,FF,08,FF,A0,82,
166784000,00000228,false,0,4,40,C0,B0,DE,00,00,00,00,
166784000,00000154,false,0,8,04,17,14,00,00,00,00,00,
166784000,00000106,false,0,8,00,C0,00,00,FF,FF,00,C5,
166784000,00000116,false,0,6,00,90,F4,11,96,42,00,00,
166784000,00000126,false,0,7,02,03,00,00,00,48,09,00,
166784000,00000102,false,0,6,12,96,E1,FF,97,FF,00,00,
166794000,00000108,false,0,4,00,00,03,19,00,00,00,00,
166794000,00000288,false,0,8,00,00,00,00,00,1B,00,00,
166794000,00000154,false,0,8,04,17,14,00,00,F1,00,38,
166794000,000001F8,false,0,8,01,EF,F0,F6,D3,37,00,00,
166794000,000002A8,false,0,8,00,00,00,00,00,00,00,1B,
166794000,00000368,false,0,8,00,5A,1F,00,00,08,00,FF,
166794000,000003E8,false,0,8,89,89,89,00,00,00,00,00,
166794000,00000228,false,0,4,40,C0,C0,87,00,00,00,00,
166794000,00000106,false,0,8,00,E0,00,00,FF,FF,00,E5,
166794000,00000754,false,0,8,65,FD,FF,00,00,00,00,00,
166794000,00000106,false,0,8,00,E0,00,00,FF,FF,00,E5,
166794000,0000065D,false,0,8,0D,00,00,00,96,31,35,61,
166794000,00000116,false,0,6,00,90,F4,11,97,43,00,00,
166794000,00000102,false,0,6,1E,96,E0,FF,D1,FF,00,00,
166794000,00000304,false,0,8,00,00,00,00,00,00,00,00,
166794000,00000314,false,0,8,00,00,00,00,00,00,00,00,
166804000,0000067D,false,0,8,01,00,00,00,FE,00,00,0A,
166804000,00000754,false,0,8,66,00,00,00,00,00,00,00,
166804000,00000754,false,0,8,67,00,95,00,00,00,00,00,
166804000,0000000E,false,0,8,20,6A,3F,FF,08,FF,C0,16,
166804000,00000754,false,0,8,64,00,00,00,00,00,00,00,
166804000,00000754,false,0,8,0A,00,00,00,00,00,00,00,
166804000,00000754,false,0,8,0D,45,60,00,95,E9,C9,01,
166804000,00000754,false,0,8,0E,4A,3C,00,00,00,00,00,
166804000,00000754,false,0,8,0F,E4,EA,00,26,47,11,01,
166804000,00000754,false,0,8,10,DB,48,00,36,EF,2E,00,
166804000,00000754,false,0,8,11,F5,8D,00,8A,E4,01,00,
166804000,00000268,false,0,8,55,00,1D,02,BD,07,36,00,
166804000,00000754,false,0,8,11,F5,8D,00,8A,E4,01,00,
166804000,00000754,false,0,8,12,9E,0D,00,BD,06,23,06,
166804000,00000754,false,0,8,13,00,00,FF,FF,00,00,00,
166804000,00000754,false,0,8,14,00,02,3F,01,00,00,00,
166804000,00000754,false,0,8,15,00,01,97,00,00,00,00,
166804000,00000754,false,0,8,16,00,01,57,00,00,00,00,
166804000,0000020C,false,0,8,00,00,00,00,00,00,F0,00,
166804000,0000023C,false,0,8,3F,40,41,78,7E,64,00,00,
166804000,00000228,false,0,4,40,C0,D0,4A,00,00,00,00,
166804000,0000023C,false,0,8,3F,40,41,78,7E,64,00,00,
166804000,0000024C,false,0,8,AB,7D,00,00,00,00,00,00,
166804000,0000040C,false,0,1,00,00,00,00,00,00,00,00,
166804000,0000071C,false,0,8,07,00,00,00,00,03,DF,00,
166804000,00000728,false,0,8,00,00,00,00,00,00,00,00,
166804000,00000106,false,0,8,00,00,00,00,FF,FF,00,05,
166804000,00000154,false,0,8,04,17,14,00,00,00,00,00,
166804000,00000248,false,0,7,30,30,1D,8C,01,15,00,00,
166804000,00000248,false,0,7,30,30,1D,8C,01,15,00,00,
166804000,00000754,false,0,8,17,00,01,51,00,00,00,00,
166814000,0000000E,false,0,8,20,6A,3F,FF,08,FF,D0,DB,
166814000,0000020E,false,0,8,88,10,00,13,BB,00,06,00,
166814000,0000040E,false,0,1,00,00,00,00,00,00,00,00,
166814000,00000288,false,0,8,00,00,00,00,00,1B,00,00,
166814000,00000108,false,0,4,00,00,04,1A,00,00,00,00,
166814000,00000168,false,0,8,02,0D,1C,7F,00,00,40,50,
166814000,000001F8,false,0,8,01,EF,F0,06,D3,47,00,00,
166814000,000002A8,false,0,8,00,00,00,00,00,00,00,1B,
166814000,00000228,false,0,4,40,C0,E0,00,00,00,00,00,
166814000,00000154,false,0,8,04,17,14,00,00,00,00,00,
166814000,00000106,false,0,8,00,20,00,00,FF,FF,00,25,
166814000,00000116,false,0,6,00,90,F4,11,99,45,00,00,
166814000,000002C8,false,0,8,6E,80,03,7B,00,00,D0,06,
166814000,00000738,false,0,8,00,00,00,00,00,00,00,00,
166814000,00000102,false,0,6,07,96,D0,FF,CD,FF,00,00,
166824000,0000000E,false,0,8,20,6A,3F,FF,08,FF,E0,91,
166824000,00000228,false,0,4,40,C0,F0,CD,00,00,00,00,
166824000,00000154,false,0,8,04,17,14,00,00,00,00,00,
166824000,00000106,false,0,8,00,40,00,00,FF,FF,00,45,
166824000,00000116,false,0,6,00,90,F4,11,9A,46,00,00,
166824000,00000102,false,0,6,12,96,D0,FF,A7,FF,00,00,
166824000,000003D8,false,0,3,86,06,00,00,00,00,00,00,
166824000,00000408,false,0,1,F0,00,00,00,00,00,00,00,
166834000,00000278,false,0,8,12,00,40,02,04,00,D0,2E,
166834000,0000000E,false,0,8,20,6A,3F,FF,08,FF,F0,5C,
166834000,00000278,false,0,8,12,00,40,02,04,00,D0,2E,
166834000,00000288,false,0,8,00,00,00,00,00,1B,00,00,
166834000,00000108,false,0,4,00,00,05,1B,00,00,00,00,
166834000,00000168,false,0,8,09,0D,1C,7F,00,00,50,67,
166834000,000001F8,false,0,8,01,EF,F0,15,D2,57,00,00,
166834000,000002A8,false,0,8,00,00,00,00,00,00,00,1B,
166834000,00000228,false,0,4,40,C0,00,B2,00,00,00,00,
166834000,00000106,false,0,8,00,60,00,00,FF,FF,00,65,
166834000,00000154,false,0,8,04,17,14,00,00,00,00,00,
166834000,00000106,false,0,8,00,60,00,00,FF,FF,00,65,
166834000,00000256,false,0,8,81,02,00,30,00,D0,00,DB,
166834000,00000116,false,0,6,00,90,F4,11,9B,47,00,00,
166834000,00000266,false,0,8,85,04,00,00,00,70,0A,4B,
166834000,00000102,false,0,6,05,96,D3,FF,99,FF,00,00,
166844000,0000000E,false,0,8,20,6A,3F,FF,08,FF,00,23,
166844000,00000228,false,0,4,40,C0,10,7F,00,00,00,00,
166844000,000007D8,false,0,8,00,00,00,00,00,00,00,00,
166844000,0000025C,false,0,8,01,02,26,9A,41,00,79,04,
166844000,000007D8,false,0,8,00,00,00,00,00,00,00,00,
166844000,00000238,false,0,8,00,FF,00,00,00,00,11,D3,
166844000,00000106,false,0,8,00,80,00,00,FF,FF,00,85,
166844000,00000154,false,0,8,04,17,14,00,00,00,00,00,
166844000,00000116,false,0,6,00,90,F4,11,9C,48,00,00,
166844000,00000102,false,0,6,07,96,D7,FF,93,FF,00,00,
166854000,00000378,false,0,8,80,60,82,00,00,00,00,00,
166854000,0000039A,false,0,8,34,32,30,28,19,19,14,00,
166854000,0000028A,false,0,8,0A,00,FF,1F,00,01,00,00,
166854000,00000125,false,0,4,FF,02,29,02,00,00,00,00,
166854000,00000288,false,0,8,00,00,00,00,00,1B,00,00,
166854000,00000108,false,0,4,00,00,06,1C,00,00,00,00,
166854000,00000168,false,0,8,10,0D,1C,7F,00,00,60,7E,
166854000,000001F8,false,0,8,01,EF,F0,26,D3,67,00,00,
166854000,000002A8,false,0,8,00,00,00,00,00,00,00,1B,
166854000,00000228,false,0,4,40,C0,20,35,00,00,00,00,
166854000,00000154,false,0,8,04,17,14,00,00,F1,00,06,
166854000,00000154,false,0,8,04,17,14,00,00,00,00,00,
166854000,00000106,false,0,8,00,A0,00,00,FF,FF,00,A5,
166854000,00000116,false,0,6,00,90,F4,11,9D,49,00,00,
166854000,00000102,false,0,6,13,96,E0,FF,97,FF,00,00,
166864000,0000025A,false,0,8,00,00,00,00,00,00,00,00,
166864000,0000023A,false,0,8,00,38,00,12,00,00,00,00,
166864000,0000021A,false,0,8,FE,36,12,FE,69,05,07,AD,
166864000,0000029A,false,0,8,01,36,FE,00,00,00,00,00,
166864000,0000027A,false,0,7,30,30,0D,8C,09,15,00,00,
166864000,000002A2,false,0,7,00,00,11,96,00,10,70,00,
166864000,00000210,false,0,7,00,00,E3,1D,1E,86,FF,00,
166864000,0000000E,false,0,8,20,6A,3F,FF,08,FF,20,A4,
166864000,00000202,false,0,8,FD,5E,45,9D,C4,09,1E,2D,
166864000,00000212,false,0,5,D8,00,12,71,00,00,00,00,
166864000,000006F2,false,0,8,08,4E,B3,D3,DC,34,43,CD,
166864000,00000222,false,0,7,00,00,11,96,00,10,70,00,
166864000,00000402,false,0,2,10,00,00,00,00,00,00,00,
166864000,00000232,false,0,4,07,24,68,82,00,00,00,00,
166864000,00000402,false,0,2,10,00,00,00,00,00,00,00,
166864000,000003A2,false,0,8,FF,0F,FF,0F,00,00,00,32,
166864000,00000228,false,0,4,40,C0,30,F8,00,00,00,00,
166864000,0000028C,false,0,8,00,00,00,00,00,00,F0,00,
166864000,000002AC,false,0,8,10,00,20,90,00,00,D6,CE,
166864000,000002BC,false,0,8,3F,40,41,78,7E,64,00,00,
166864000,00000154,false,0,8,04,17,14,00,00,00,00,00,
166864000,00000102,false,0,6,20,96,E0,FF,BB,FF,00,00,
166864000,000002CC,false,0,8,AB,7D,00,00,00,00,00,00,
166864000,00000102,false,0,6,20,96,E0,FF,BB,FF,00,00,
166864000,00000116,false,0,6,00,90,F4,11,9E,4A,00,00,
166864000,0000048C,false,0,1,00,00,00,00,00,00,00,00,
166864000,0000079C,false,0,8,0A,00,00,00,00,00,00,00,
166874000,0000020A,false,0,8,00,01,01,82,81,40,11,11,
166874000,000003A8,false,0,8,30,30,31,00,03,00,00,00,
166874000,00000258,false,0,8,2F,C8,36,D8,46,05,00,8F,
166874000,00000108,false,0,4,00,00,07,1D,00,00,00,00,
166874000,00000288,false,0,8,00,00,00,00,00,1B,00,00,
166874000,000002DC,false,0,8,00,00,00,00,00,F1,00,DE,
166874000,000001F8,false,0,8,01,EF,F0,36,D3,77,00,00,
166874000,000002A8,false,0,8,00,00,00,00,00,00,00,1B,
166874000,00000358,false,0,8,04,07,50,01,F0,00,00,30,
166874000,00000228,false,0,4,40,C0,40,A1,00,00,00,00,
166874000,0000029C,false,0,8,00,08,00,00,87,01,00,14,
166874000,00000106,false,0,8,00,E0,00,00,FF,FF,00,E5,
166874000,00000154,false,0,8,04,17,14,00,00,00,00,00,
166874000,00000106,false,0,8,00,E0,00,00,FF,FF,00,E5,
166874000,00000116,false,0,6,00,90,F4,11,9F,4B,00,00,
166874000,00000102,false,0,6,13,96,DC,FF,D2,FF,00,00,
166884000,0000026A,false,0,3,FA,01,00,00,00,00,00,00,
166884000,0000000E,false,0,8,20,6A,3F,FF,08,FF,40,30,
166884000,00000228,false,0,4,40,C0,50,6C,00,00,00,00,
166884000,00000154,false,0,8,04,17,14,00,00,00,00,00,
166884000,00000126,false,0,7,02,03,00,00,00,48,09,00,
166884000,00000116,false,0,6,00,90,F4,11,90,3C,00,00,
166884000,00000126,false,0,7,02,03,00,00,00,48,09,00,
166884000,00000102,false,0,6,20,96,D5,FF,CB,FF,00,00,
166894000,0000000E,false,0,8,20,6A,3F,FF,08,FF,50,FD,
166894000,00000288,false,0,8,00,00,00,00,00,1B,00,00,
166894000,00000108,false,0,4,00,00,08,1E,00,00,00,00,
166894000,00000168,false,0,8,1D,0D,1C,7F,00,00,80,AB,
166894000,000001F8,false,0,8,01,EF,F0,46,D3,87,00,00,
166894000,00000154,false,0,8,04,17,14,00,00,00,00,00,
166894000,00000228,false,0,4,40,C0,60,26,00,00,00,00,
166894000,00000154,false,0,8,04,17,14,00,00,00,00,00,
166894000,00000754,false,0,8,65,FD,FF,00,00,00,00,00,
166894000,00000106,false,0,8,00,20,00,00,FF,FF,00,25,
166894000,00000116,false,0,6,00,90,F4,11,91,3D,00,00,
166894000,00000102,false,0,6,21,96,CE,FF,CF,FF,00,00,
166894000,00000368,false,0,8,00,5A,1F,00,00,08,00,FF,
166904000,00000268,false,0,8,55,00,1D,02,BD,07,36,00,
166904000,0000022C,false,0,8,00,00,1B,8F,00,00,D6,CE,
166904000,0000020C,false,0,8,00,00,00,00,00,00,F0,00,
166904000,00000154,false,0,8,04,17,14,00,00,00,00,00,
166904000,00000228,false,0,4,40,C0,70,EB,00,00,00,00,
166904000,0000023C,false,0,8,3F,40,41,78,7E,64,00,00,
166904000,00000248,false,0,7,30,30,1D,8C,01,15,00,00,
166904000,0000024C,false,0,8,AB,7D,00,00,00,00,00,00,
166904000,0000040C,false,0,1,00,00,00,00,00,00,00,00,
166904000,0000071C,false,0,8,08,00,00,00,00,00,00,00,
166904000,00000754,false,0,8,67,00,95,00,00,00,00,00,
166904000,00000106,false,0,8,00,40,00,00,FF,FF,00,45,
166904000,00000754,false,0,8,67,00,95,00,00,00,00,00,
166904000,00000102,false,0,6,FA,95,D1,FF,98,FF,00,00,
166904000,00000116,false,0,6,00,90,F4,11,92,3E,00,00,
166904000,00000754,false,0,8,66,00,00,00,00,00,00,00,
166914000,00000754,false,0,8,64,00,00,00,00,00,00,00,
166914000,00000754,false,0,8,0A,00,00,00,00,00,00,00,
166914000,0000000E,false,0,8,20,6A,3F,FF,08,FF,70,7A,
166914000,0000040E,false,0,1,00,00,00,00,00,00,00,00,
166914000,0000030E,false,0,6,00,00,00,00,00,00,00,00,
166914000,00000228,false,0,4,40,C0,F1,00,00,00,00,00,
166914000,00000288,false,0,8,00,00,00,00,00,1B,00,00,
166914000,00000108,false,0,4,00,00,09,1F,00,00,00,00,
166914000,00000168,false,0,8,23,0D,1C,7F,00,00,90,C1,
166914000,000001F8,false,0,8,01,EF,F0,56,D3,97,00,00,
166914000,000002A8,false,0,8,00,00,00,00,00,00,00,1B,
166914000,00000106,false,0,8,00,60,00,00,FF,F1,00,A6,
166914000,00000106,false,0,8,00,60,00,00,FF,FF,00,65,
166914000,00000116,false,0,6,00,90,F4,11,93,3F,00,00,
166914000,000002C8,false,0,8,6E,80,03,7B,00,00,E0,16,
166914000,00000102,false,0,6,13,96,D6,FF,96,FF,00,00,
166924000,0000000E,false,0,8,20,6A,3F,FF,08,FF,80,05,
166924000,000003D8,false,0,3,86,06,00,00,00,00,00,00,
166924000,00000408,false,0,1,00,00,00,00,00,00,00,00,
166924000,00000106,false,0,8,00,80,00,00,FF,F1,00,12,
166924000,00000106,false,0,8,00,80,00,00,FF,FF,00,85,
166924000,00000116,false,0,6,00,90,F4,11,94,40,00,00,
166924000,00000102,false,0,6,13,96,DC,FF,9D,FF,00,00,
166934000,0000000E,false,0,8,20,6A,3F,FF,08,FF,90,C8,
166934000,00000108,false,0,4,00,00,0A,20,00,00,00,00,
166934000,00000278,false,0,8,12,00,40,02,04,00,E0,3E,
166934000,00000288,false,0,8,00,00,00,00,00,1B,00,00,
166934000,000002A8,false,0,8,00,00,00,00,00,00,00,1B,
166934000,000001F8,false,0,8,01,EF,F0,65,D2,A7,00,00,
166934000,00000102,false,0,6,FC,95,E1,FF,99,FF,00,00,
166934000,00000228,false,0,4,40,C0,A0,13,00,00,00,00,
166934000,00000154,false,0,8,04,17,14,00,00,00,00,00,
166934000,00000106,false,0,8,00,A0,00,00,FF,FF,00,A5,
166934000,00000116,false,0,6,00,90,F4,11,95,41,00,00,
166934000,00000256,false,0,8,81,02,00,30,00,E0,00,EB,
166934000,00000266,false,0,8,85,04,00,00,00,70,0A,4B,
166934000,00000102,false,0,6,FC,95,E1,FF,99,FF,00,00,
166944000,0000000E,false,0,8,20,6A,3F,FF,08,FF,A0,82,
166944000,00000102,false,0,6,2E,96,DE,FF,D2,FF,00,00,
166944000,00000228,false,0,4,40,C0,B0,DE,00,00,00,00,
166944000,0000025C,false,0,8,01,02,26,9A,24,00,7F,04,
166944000,00000238,false,0,8,00,FF,00,00,00,00,21,99,
166944000,00000154,false,0,8,04,17,14,00,00,00,00,00,
166944000,00000106,false,0,8,00,C0,00,00,FF,FF,00,C5,
166944000,00000116,false,0,6,00,90,F4,11,96,42,00,00,
166944000,00000102,false,0,6,2E,96,DE,FF,D2,FF,00,00,
166954000,0000000E,false,0,8,20,6A,3F,FF,08,FF,B0,4F,
166954000,00000125,false,0,4,FF,02,2A,03,00,00,00,00,
166954000,000003AA,false,0,8,00,00,80,00,00,00,80,80,
166954000,00000288,false,0,8,00,00,00,00,00,1B,00,00,
166954000,00000108,false,0,4,00,00,0B,21,00,00,00,00,
166954000,00000168,false,0,8,2C,0D,1C,7F,00,00,B0,EA,
166954000,000001F8,false,0,8,01,EF,F0,76,D3,B7,00,00,
166954000,000002A8,false,0,8,00,00,00,00,00,00,00,1B,
166954000,00000228,false,0,4,40,C0,C0,87,00,00,00,00,
166954000,00000138,false,0,5,00,13,49,00,00,00,00,00,
166954000,00000228,false,0,4,40,C0,C0,87,00,00,00,00,
166954000,00000154,false,0,8,04,17,14,00,00,00,00,00,
166954000,00000106,false,0,8,00,E0,00,00,FF,FF,00,E5,
166954000,00000116,false,0,6,00,90,F4,11,97,43,00,00,
166954000,00000102,false,0,6,14,96,D7,FF,D2,FF,00,00,
166964000,0000025A,false,0,8,00,00,00,00,00,00,00,00,
166964000,0000023A,false,0,8,00,38,00,12,00,00,00,00,
166964000,0000027A,false,0,7,30,30,0D,8C,09,15,00,00,
166964000,0000022A,false,0,8,67,01,5E,1D,00,00,00,00,
166964000,00000222,false,0,7,00,00,12,96,00,10,70,00,
166964000,0000029A,false,0,8,01,36,FE,00,00,00,00,00,
166964000,00000210,false,0,7,00,00,E3,1D,1F,86,FF,00,
166964000,0000000E,false,0,8,20,6A,3F,FF,08,FF,C0,16,
166964000,00000202,false,0,8,FD,5E,45,9D,C4,09,1E,2D,
166964000,000006F2,false,0,8,09,4F,B3,D3,DC,34,37,CD,
166964000,00000212,false,0,5,D8,00,12,71,00,00,00,00,
166964000,00000232,false,0,4,07,24,68,82,00,00,00,00,
166964000,000002A2,false,0,7,00,00,12,96,00,10,70,00,
166964000,00000232,false,0,4,07,24,68,82,00,00,00,00,
166964000,00000402,false,0,2,10,00,00,00,00,00,00,00,
166964000,000003A2,false,0,8,FF,0F,FF,0F,00,00,00,32,
166964000,00000228,false,0,4,40,C0,D0,4A,00,00,00,00,
166964000,0000028C,false,0,8,00,00,00,00,00,00,F0,00,
166964000,000002AC,false,0,8,10,00,1C,90,00,00,D6,CE,
166964000,000002BC,false,0,8,3F,40,41,78,7E,64,00,00,
166964000,000002CC,false,0,8,AB,7D,00,00,00,00,00,00,
166964000,00000106,false,0,8,00,00,00,00,FF,FF,00,05,
166964000,000002CC,false,0,8,AB,7D,00,00,00,00,00,00,
166964000,00000116,false,0,6,00,90,F4,11,98,44,00,00,
166964000,00000102,false,0,6,13,96,D1,FF,D0,FF,00,00,
166964000,0000048C,false,0,1,00,00,00,00,00,00,00,00,
166964000,0000079C,false,0,8,0B,00,00,00,00,00,00,00,
166964000,0000020A,false,0,8,00,01,01,82,91,40,11,11,
166974000,000003A8,false,0,8,30,30,31,00,03,00,00,00,
166974000,00000288,false,0,8,00,00,00,00,00,1B,00,00,
166974000,0000000E,false,0,8,20,6A,3F,FF,08,FF,D0,DB,
166974000,000002DC,false,0,8,00,00,00,00,00,00,00,00,
166974000,00000108,false,0,4,00,00,0C,22,00,00,00,00,
166974000,00000168,false,0,8,2F,0D,1C,7F,00,00,C0,FD,
166974000,000001F8,false,0,8,01,EF,F0,85,D2,C7,00,00,
166974000,000002A8,false,0,8,00,00,00,00,00,00,00,1B,
166974000,00000228,false,0,4,40,C0,E0,00,00,00,00,00,
166974000,0000029C,false,0,8,00,08,00,00,87,01,00,14,
166974000,00000358,false,0,8,04,07,50,01,F0,00,00,30,
166974000,00000154,false,0,8,04,17,14,00,00,00,00,00,
166974000,00000358,false,0,8,04,07,50,01,F0,00,00,30,
166974000,00000106,false,0,8,00,20,00,00,FF,FF,00,25,
166974000,00000116,false,0,6,00,90,F4,11,99,45,00,00,
166974000,00000102,false,0,6,07,96,D0,FF,99,FF,00,00,
166974000,0000026A,false,0,3,FA,01,00,00,00,00,00,00,
166984000,0000000E,false,0,8,20,6A,3F,FF,08,FF,E0,91,
166984000,00000228,false,0,4,40,C0,F0,CD,00,00,00,00,
166984000,00000116,false,0,6,00,90,F4,11,9A,46,00,00,
166984000,00000106,false,0,8,00,40,00,00,FF,FF,00,45,
166984000,00000116,false,0,6,00,90,F4,11,9A,46,00,00,
166984000,00000126,false,0,7,02,03,00,00,00,48,09,00,
166984000,00000102,false,0,6,13,96,D2,FF,9C,FF,00,00,
166994000,0000000E,false,0,8,20,6A,3F,FF,08,FF,F0,5C,
166994000,00000288,false,0,8,00,00,00,00,00,1B,00,00,
166994000,00000108,false,0,4,00,00,0D,23,00,00,00,00,
166994000,00000168,false,0,8,30,0D,1C,7F,00,00,D0,0E,
166994000,00000368,false,0,8,00,5A,1F,00,00,08,00,FF,
166994000,000002A8,false,0,8,00,00,00,00,00,00,00,1B,
166994000,00000102,false,0,6,13,96,D7,FF,99,FF,00,00,
166994000,00000228,false,0,4,40,C0,00,B2,00,00,00,00,
166994000,00000154,false,0,8,04,17,14,00,00,00,00,00,
166994000,00000106,false,0,8,00,60,00,00,FF,FF,00,65,
166994000,00000754,false,0,8,65,FD,FF,00,00,00,00,00,
166994000,00000116,false,0,6,00,90,F4,11,9B,47,00,00,
166994000,00000754,false,0,8,67,00,95,00,00,00,00,00,
166994000,00000102,false,0,6,13,96,D7,FF,99,FF,00,00,
166994000,00000754,false,0,8,66,00,00,00,00,00,00,00,
167004000,00000228,false,0,4,40,C0,10,7F,00,00,00,00,
167004000,00000754,false,0,8,0A,00,00,00,00,00,00,00,
167004000,0000000E,false,0,8,20,6A,3F,FF,08,FF,00,23,
167004000,00000268,false,0,8,55,00,3C,02,BD,07,36,00,
167004000,00000248,false,0,7,30,30,1D,8C,01,15,00,00,
167004000,0000020C,false,0,8,00,00,00,00,00,00,F0,00,
167004000,0000022C,false,0,8,00,00,26,8F,00,00,D6,CE,
167004000,0000024C,false,0,8,AB,7D,00,00,00,F1,00,C6,
167004000,0000024C,false,0,8,AB,7D,00,00,00,00,00,00,
167004000,0000040C,false,0,1,00,00,00,00,00,00,00,00,
167004000,0000052C,false,0,8,00,00,00,00,00,00,0A,00,
167004000,00000154,false,0,8,04,17,14,00,00,00,00,00,
167004000,00000106,false,0,8,00,80,00,00,FF,FF,00,85,
167004000,0000071C,false,0,8,09,00,C4,FF,00,00,C4,FF,
167004000,00000116,false,0,6,00,90,F4,11,9C,48,00,00,
167004000,00000102,false,0,6,07,96,E0,FF,95,FF,00,00,
167014000,0000000E,false,0,8,20,6A,3F,FF,08,FF,10,EE,
167014000,000002A8,false,0,8,00,00,00,00,00,00,00,1B,
167014000,0000031E,false,0,6,00,00,00,00,00,00,00,00,
167014000,0000040E,false,0,1,00,00,00,00,00,00,00,00,
167014000,00000288,false,0,8,00,00,00,00,00,1B,00,00,
167014000,00000108,false,0,4,00,00,0E,24,00,00,00,00,
167014000,00000168,false,0,8,32,0D,1C,7F,00,00,E0,20,
167014000,000001F8,false,0,8,01,EF,F0,A6,D3,E7,00,00,
167014000,00000228,false,0,4,40,C0,20,35,00,00,00,00,
167014000,000002C8,false,0,8,6E,80,03,7B,00,00,F0,26,
167014000,00000228,false,0,4,40,C0,20,35,00,00,00,00,
167014000,00000154,false,0,8,04,17,14,00,00,00,00,00,
167014000,00000106,false,0,8,00,A0,00,00,FF,FF,00,A5,
167014000,00000116,false,0,6,00,90,F4,11,9D,49,00,00,
167014000,00000102,false,0,6,20,96,E0,FF,C8,FF,00,00,
167024000,0000000E,false,0,8,20,6A,3F,FF,08,FF,20,A4,
167024000,00000228,false,0,4,40,C0,30,F8,00,00,00,00,
167024000,00000116,false,0,6,00,90,F4,11,9E,4A,00,00,
167024000,00000106,false,0,8,00,C0,00,00,FF,FF,00,C5,
167024000,00000116,false,0,6,00,90,F4,11,9E,4A,00,00,
167024000,00000102,false,0,6,20,96,DB,FF,CF,FF,00,00,
167024000,000003D8,false,0,3,86,06,00,00,00,00,00,00,
167024000,00000408,false,0,1,10,00,00,00,00,00,00,00,
167034000,0000000E,false,0,8,20,6A,3F,FF,08,FF,30,69,
167034000,00000108,false,0,4,00,00,0F,25,00,00,00,00,
167034000,00000278,false,0,8,12,00,40,02,04,00,F0,4E,
167034000,000001F8,false,0,8,01,EF,F0,B6,D3,F7,00,00,
167034000,00000168,false,0,8,33,0D,1C,7F,00,00,F0,31,
167034000,00000102,false,0,6,2D,96,D4,FF,CC,FF,00,00,
167034000,000002A8,false,0,8,00,00,00,00,00,00,00,1B,
167034000,00000228,false,0,4,40,C0,40,A1,00,00,00,00,
167034000,00000154,false,0,8,04,17,14,00,00,00,00,00,
167034000,00000106,false,0,8,00,E0,00,00,FF,FF,00,E5,
167034000,00000256,false,0,8,81,02,00,30,00,F0,00,FB,
167034000,00000116,false,0,6,00,90,F4,11,9F,4B,00,00,
167034000,00000656,false,0,8,0D,00,00,00,D3,F8,72,F1,
167034000,00000656,false,0,8,0D,00,00,00,D3,F8,72,4B,
167044000,00000506,false,0,8,01,00,00,00,FE,00,00,0D,
167044000,00000516,false,0,8,00,00,00,00,00,00,22,00,
167044000,00000306,false,0,8,44,3F,40,47,40,3F,A4,7D,
167044000,00000556,false,0,6,3F,3F,40,00,00,00,00,00,
167044000,00000316,false,0,6,D0,6E,CA,82,00,78,00,00,
167044000,00000326,false,0,8,00,00,00,00,00,00,00,00,
167044000,00000356,false,0,8,00,00,00,00,00,00,00,00,
167044000,00000346,false,0,8,00,00,00,00,00,00,00,00,
167044000,00000228,false,0,4,40,C0,50,6C,00,00,00,00,
167044000,00000366,false,0,8,00,00,00,00,00,00,00,00,
167044000,00000386,false,0,8,00,00,00,00,00,00,00,00,
167044000,00000396,false,0,8,00,00,00,00,00,00,00,00,
167044000,00000267,false,0,3,FF,FF,FF,00,00,00,00,00,
167044000,0000000E,false,0,8,20,6A,3F,FF,08,FF,40,30,
167044000,0000021C,false,0,8,00,08,00,00,86,01,00,14,
167044000,00000154,false,0,8,04,17,14,00,00,F1,00,C8,
167044000,00000154,false,0,8,04,17,14,00,00,00,00,00,
167044000,00000106,false,0,8,00,00,00,00,FF,FF,00,05,
167044000,00000116,false,0,6,00,90,F4,11,90,3C,00,00,
167044000,00000102,false,0,6,14,96,CF,FF,C7,FF,00,00,
167044000,00000238,false,0,8,00,FF,00,00,00,00,31,54,
167054000,0000000E,false,0,8,20,6A,3F,FF,08,FF,50,FD,
167054000,0000028A,false,0,8,0A,00,FF,1F,00,01,00,00,
167054000,00000108,false,0,4,00,00,00,16,00,00,00,00,
167054000,00000288,false,0,8,00,00,00,00,00,1B,00,00,
167054000,00000228,false,0,4,40,C0,60,26,00,00,00,00,
167054000,0000034A,false,0,1,00,00,00,00,00,00,00,00,
167054000,00000168,false,0,8,34,0D,1C,7F,00,00,00,42,
167054000,000001F8,false,0,8,01,EF,F0,C6,D3,07,00,00,
167054000,0000035A,false,0,8,00,00,02,03,70,00,80,7E,
167054000,000002A8,false,0,8,00,00,00,00,00,00,00,1B,
167054000,0000074A,false,0,8,00,00,00,00,00,00,00,00,
167054000,00000106,false,0,8,00,20,00,00,FF,F1,00,6E,
167054000,00000106,false,0,8,00,20,00,00,FF,FF,00,25,
167054000,00000116,false,0,6,00,90,F4,11,91,3D,00,00,
167054000,00000125,false,0,4,FF,02,2B,04,00,00,00,00,
167054000,00000102,false,0,6,14,96,D2,FF,94,FF,00,00,
167054000,00000138,false,0,5,00,14,4A,00,00,00,00,00,
167064000,0000025A,false,0,8,00,00,00,00,00,00,00,00,
167064000,0000023A,false,0,8,00,38,00,12,00,00,00,00,
167064000,0000027A,false,0,7,30,30,0D,8C,09,15,00,00,
167064000,0000022A,false,0,8,67,01,5E,1D,00,00,00,00,
167064000,0000027A,false,0,7,30,30,0D,8C,09,15,00,00,
167064000,0000029A,false,0,8,01,36,FE,00,00,00,00,00,
167064000,00000210,false,0,7,00,00,E3,1D,1F,86,FF,00,
167064000,0000000E,false,0,8,20,6A,3F,FF,08,FF,60,B7,
167064000,00000228,false,0,4,40,C0,70,EB,00,00,00,00,
167064000,0000028C,false,0,8,00,00,00,00,00,00,F0,00,
167064000,000002AC,false,0,8,0D,00,2C,90,00,00,D6,CE,
167064000,00000106,false,0,8,00,40,00,00,FF,FF,00,45,
167064000,000002BC,false,0,8,3F,40,41,78,7E,64,00,00,
167064000,00000106,false,0,8,00,40,00,00,FF,FF,00,45,
167064000,000002CC,false,0,8,AB,7D,00,00,00,00,00,00,
167064000,00000116,false,0,6,00,90,F4,11,92,3E,00,00,
167064000,00000102,false,0,6,07,96,D6,FF,94,FF,00,00,
167064000,000003A8,false,0,8,30,30,31,00,03,00,00,00,
167064000,0000048C,false,0,1,00,00,00,00,00,00,00,00,
167064000,00000258,false,0,8,2F,C8,36,D8,46,05,00,8F,
167074000,00000202,false,0,8,FD,5E,45,9D,C4,09,1E,2D,
167074000,0000079C,false,0,8,0C,00,00,00,00,00,00,00,
167074000,00000202,false,0,8,FD,5E,45,9D,C4,09,1E,2D,
167074000,000006F2,false,0,8,0A,50,73,D4,0C,35,37,CD,
167074000,00000212,false,0,5,D8,00,12,71,00,00,00,00,
167074000,00000222,false,0,7,00,00,10,96,00,10,70,00,
167074000,000002A2,false,0,7,00,00,10,96,00,10,70,00,
167074000,00000232,false,0,4,07,24,68,82,00,00,00,00,
167074000,00000402,false,0,2,10,00,00,00,00,00,00,00,
167074000,00000288,false,0,8,00,00,00,00,00,1B,00,00,
167074000,0000000E,false,0,8,20,6B,3F,FF,08,FF,70,3C,
167074000,00000288,false,0,8,00,00,00,00,00,1B,00,00,
167074000,00000108,false,0,4,00,00,01,17,00,00,00,00,
167074000,00000168,false,0,8,34,0D,1C,7F,00,00,10,52,
167074000,000001F8,false,0,8,01,EF,F0,D5,D2,17,00,00,
167074000,000002A8,false,0,8,00,00,00,00,00,00,00,1B,
167074000,00000228,false,0,4,40,C0,80,94,00,00,00,00,
167074000,0000029C,false,0,8,00,08,00,00,87,01,00,14,
167074000,00000154,false,0,8,04,17,14,00,00,00,00,00,
167074000,00000358,false,0,8,04,07,50,01,F0,00,00,30,
167074000,00000154,false,0,8,04,17,14,00,00,00,00,00,
167074000,00000106,false,0,8,00,60,00,00,FF,FF,00,65,
167074000,00000116,false,0,6,00,90,F4,11,93,3F,00,00,
167074000,00000102,false,0,6,07,96,DC,FF,92,FF,00,00,
167074000,0000026A,false,0,3,FA,01,00,00,00,00,00,00,
167084000,0000000E,false,0,8,20,6B,3F,FF,08,FF,80,43,
167084000,00000228,false,0,4,40,C0,90,59,00,00,00,00,
167084000,00000116,false,0,6,00,90,F4,11,94,40,00,00,
167084000,00000106,false,0,8,00,80,00,00,FF,FF,00,85,
167084000,00000116,false,0,6,00,90,F4,11,94,40,00,00,
167084000,00000126,false,0,7,02,03,00,00,00,48,09,00,
167084000,00000102,false,0,6,07,96,E1,FF,9A,FF,00,00,
167094000,0000000E,false,0,8,20,6B,3F,FF,08,FF,90,8E,
167094000,00000288,false,0,8,00,00,00,00,00,1B,00,00,
167094000,00000108,false,0,4,00,00,02,18,00,00,00,00,
167094000,00000168,false,0,8,34,0D,1C,7F,00,00,20,62,
167094000,00000228,false,0,4,40,C0,A0,13,00,00,00,00,
167094000,000002A8,false,0,8,00,00,00,00,00,00,00,1B,
167094000,00000368,false,0,8,00,5A,1F,00,00,F1,00,4E,
167094000,00000106,false,0,8,00,A0,00,00,FF,FF,00,A5,
167094000,00000754,false,0,8,65,FD,FF,00,00,00,00,00,
167094000,00000116,false,0,6,00,90,F4,11,95,41,00,00,
167094000,00000102,false,0,6,20,96,DE,FF,CE,FF,00,00,
167094000,00000754,false,0,8,67,00,95,00,00,00,00,00,
167094000,00000368,false,0,8,00,5A,1F,00,00,08,00,FF,
167104000,00000754,false,0,8,66,00,00,00,00,00,00,00,
167104000,0000023C,false,0,8,3F,40,41,78,7E,64,00,00,
167104000,00000754,false,0,8,0A,00,00,00,00,00,00,00,
167104000,0000000E,false,0,8,20,6B,3F,FF,08,FF,A0,C4,
167104000,00000248,false,0,7,30,30,1D,8C,01,15,00,00,
167104000,00000268,false,0,8,55,00,1D,02,BD,07,36,00,
167104000,0000020C,false,0,8,00,00,00,00,00,00,F0,00,
167104000,0000022C,false,0,8,00,00,28,8F,00,00,D6,CE,
167104000,0000024C,false,0,8,AB,7D,00,00,00,00,00,00,
167104000,00000228,false,0,4,40,C0,B0,DE,00,00,00,00,
167104000,0000024C,false,0,8,AB,7D,00,00,00,00,00,00,
167104000,0000040C,false,0,1,00,00,00,00,00,00,00,00,
167104000,0000071C,false,0,8,0A,00,00,00,00,00,00,00,
167104000,00000154,false,0,8,04,17,14,00,00,00,00,00,
167104000,00000106,false,0,8,00,C0,00,00,FF,FF,00,C5,
167104000,00000116,false,0,6,00,90,F4,11,96,42,00,00,
167104000,00000102,false,0,6,14,96,D7,FF,D0,FF,00,00,
167114000,0000032E,false,0,4,00,00,00,00,00,00,00,00,
167114000,0000000E,false,0,8,20,6B,3F,FF,08,FF,B0,09,
167114000,00000228,false,0,4,40,C0,C0,87,00,00,00,00,
167114000,0000040E,false,0,1,00,00,00,00,00,00,00,00,
167114000,00000108,false,0,4,00,00,03,19,00,00,00,00,
167114000,00000288,false,0,8,00,00,00,00,00,1B,00,00,
167114000,00000168,false,0,8,35,0D,1C,7F,00,00,30,73,
167114000,000001F8,false,0,8,01,EF,F0,F6,D3,37,00,00,
167114000,000002A8,false,0,8,00,00,00,00,00,00,00,1B,
167114000,00000106,false,0,8,00,E0,00,00,FF,F1,00,8A,
167114000,00000106,false,0,8,00,E0,00,00,FF,FF,00,E5,
167114000,000002C8,false,0,8,6E,80,03,7B,00,00,00,36,
167114000,00000116,false,0,6,00,90,F4,11,97,43,00,00,
167114000,00000102,false,0,6,14,96,CF,FF,CC,FF,00,00,
167124000,0000000E,false,0,8,20,6B,3F,FF,08,FF,C0,50,
167124000,000003D8,false,0,3,86,06,00,00,00,00,00,00,
167124000,00000408,false,0,1,20,00,00,00,00,00,00,00,
167124000,00000106,false,0,8,00,00,00,00,FF,F1,00,51,
167124000,00000106,false,0,8,00,00,00,00,FF,FF,00,05,
167124000,00000116,false,0,6,00,90,F4,11,98,44,00,00,
167124000,00000102,false,0,6,07,96,D0,FF,98,FF,00,00,
167134000,0000000E,false,0,8,20,6B,3F,FF,08,FF,D0,9D,
167134000,00000278,false,0,8,12,00,40,02,04,00,00,5E,
167134000,00000108,false,0,4,00,00,04,1A,00,00,00,00,
167134000,00000288,false,0,8,00,00,00,00,00,1B,00,00,
167134000,000002A8,false,0,8,00,00,00,00,00,00,00,1B,
167134000,000001F8,false,0,8,01,EF,F0,06,D3,47,00,00,
167134000,00000102,false,0,6,07,96,D4,FF,98,FF,00,00,
167134000,00000228,false,0,4,40,C0,E0,00,00,00,00,00,
167134000,00000154,false,0,8,04,17,14,00,00,00,00,00,
167134000,00000106,false,0,8,00,20,00,00,FF,FF,00,25,
167134000,00000256,false,0,8,81,02,00,30,00,00,00,0B,
167134000,00000116,false,0,6,00,90,F4,11,99,45,00,00,
167134000,00000266,false,0,8,85,04,00,00,00,70,0A,4B,
167134000,00000102,false,0,6,07,96,D4,FF,98,FF,00,00,
167144000,0000000E,false,0,8,20,6A,3F,FF,08,FF,E0,91,
167144000,00000102,false,0,6,15,96,DA,FF,93,FF,00,00,
167144000,0000025C,false,0,8,01,02,26,9A,6C,00,8B,04,
167144000,00000228,false,0,4,40,C0,F0,CD,00,00,00,00,
167144000,00000238,false,0,8,00,FF,00,00,00,00,41,0D,
167144000,00000154,false,0,8,04,17,14,00,00,00,00,00,
167144000,00000106,false,0,8,00,40,00,00,FF,FF,00,45,
167144000,00000116,false,0,6,00,90,F4,11,9A,46,00,00,
167144000,00000102,false,0,6,15,96,DA,FF,93,FF,00,00,
167154000,00000218,false,0,8,7D,04,FF,07,FF,00,10,CD,
167154000,000002A8,false,0,8,00,00,00,00,00,00,00,1B,
167154000,0000028A,false,0,8,0A,00,FF,1F,00,01,00,00,
167154000,000003CA,false,0,8,00,00,00,00,00,00,00,00,
167154000,00000288,false,0,8,00,00,00,00,00,1B,00,00,
167154000,00000108,false,0,4,00,00,05,1B,00,00,00,00,
167154000,00000168,false,0,8,34,0D,1C,7F,00,00,50,92,
167154000,000001F8,false,0,8,01,EF,F0,16,D3,57,00,00,
167154000,00000138,false,0,5,00,15,4B,00,00,00,00,00,
167154000,00000125,false,0,4,FF,03,2D,05,00,00,00,00,
167154000,00000138,false,0,5,00,15,4B,00,00,00,00,00,
167154000,00000228,false,0,4,40,C0,00,B2,00,00,00,00,
167154000,00000154,false,0,8,04,17,14,00,00,00,00,00,
167154000,00000106,false,0,8,00,60,00,00,FF,FF,00,65,
167154000,00000116,false,0,6,00,90,F4,11,9B,47,00,00,
167154000,00000102,false,0,6,0A,96,E0,FF,92,FF,00,00,
167164000,0000025A,false,0,8,00,00,00,00,00,00,00,00,
167164000,0000022A,false,0,8,67,01,5E,1D,00,00,00,00,
167164000,0000021A,false,0,8,FE,36,12,FE,69,05,07,AD,
167164000,00000228,false,0,4,40,C0,10,7F,00,00,00,00,
167164000,0000027A,false,0,7,30,30,0D,8C,09,15,00,00,
167164000,0000029A,false,0,8,01,36,FE,00,00,00,00,00,
167164000,00000210,false,0,7,00,00,E3,1D,1F,86,FF,00,
167164000,0000000E,false,0,8,20,6A,3F,FF,08,FF,00,23,
167164000,00000258,false,0,8,2F,C8,36,D8,46,05,00,8F,
167164000,00000202,false,0,8,FD,5E,45,9D,C4,09,1E,2D,
167164000,0000028C,false,0,8,00,00,00,00,00,F1,00,EB,
167164000,0000028C,false,0,8,00,00,00,00,00,00,F0,00,
167164000,00000154,false,0,8,04,17,14,00,00,00,00,00,
167164000,000002AC,false,0,8,0F,00,26,90,00,00,D6,CE,
167164000,00000106,false,0,8,00,80,00,00,FF,FF,00,85,
167164000,000002BC,false,0,8,3F,40,41,78,7E,64,00,00,
167164000,00000116,false,0,6,00,90,F4,11,9C,48,00,00,
167164000,000002CC,false,0,8,AB,7D,00,00,00,00,00,00,
167164000,000003A8,false,0,8,30,30,31,00,03,00,00,F1,
167164000,000003A8,false,0,8,30,30,31,00,03,00,00,00,
167174000,0000020A,false,0,8,00,01,01,82,B1,3F,11,11,
167174000,0000048C,false,0,1,00,00,00,00,00,00,00,00,
167174000,0000059C,false,0,8,01,00,00,00,FE,00,00,09,
167174000,000006F2,false,0,8,0B,4F,B3,D3,0C,35,43,CD,
167174000,00000222,false,0,7,00,00,11,96,00,10,70,00,
167174000,0000079C,false,0,8,0D,30,03,00,00,00,00,00,
167174000,00000402,false,0,2,10,00,00,00,00,00,00,00,
167174000,00000232,false,0,4,07,24,68,82,00,00,00,00,
167174000,00000328,false,0,8,8A,8A,8C,F1,00,DF,DF,F6,
167174000,0000000E,false,0,8,20,6A,3F,FF,08,FF,10,EE,
167174000,0000051A,false,0,8,43,09,00,00,00,00,00,00,
167174000,00000308,false,0,8,E9,EB,10,11,B9,30,00,00,
167174000,00000288,false,0,8,00,00,00,00,00,1B,00,00,
167174000,00000108,false,0,4,00,00,06,1C,00,00,00,00,
167174000,000001F8,false,0,8,01,EF,F0,26,D3,67,00,00,
167174000,00000168,false,0,8,34,0D,1C,7F,00,00,60,A2,
167174000,000001F8,false,0,8,01,EF,F0,26,D3,67,00,00,
167174000,000002A8,false,0,8,00,00,00,00,00,00,00,1B,
167174000,000003F8,false,0,8,A4,02,9A,02,92,02,96,02,
167174000,00000318,false,0,8,7B,78,7F,14,62,00,00,00,
167174000,00000228,false,0,4,40,C0,20,35,00,00,00,00,
167174000,0000029C,false,0,8,00,08,00,00,87,01,00,14,
167174000,000002DC,false,0,8,00,00,00,00,00,00,00,00,
167174000,00000358,false,0,8,04,07,50,01,F0,00,00,30,
167174000,00000154,false,0,8,04,17,14,00,00,00,00,00,
167174000,00000358,false,0,8,04,07,50,01,F0,00,00,30,
167174000,00000106,false,0,8,00,A0,00,00,FF,FF,00,A5,
167174000,00000116,false,0,6,00,90,F4,11,9D,49,00,00,
167174000,00000102,false,0,6,2E,96,DA,FF,CD,FF,00,00,
167174000,0000026A,false,0,3,FA,01,00,00,00,00,00,00,
167184000,0000000E,false,0,8,20,6A,3F,FF,08,FF,20,A4,
167184000,00000228,false,0,4,40,C0,30,F8,00,00,00,00,
167184000,00000106,false,0,8,00,C0,00,00,FF,FF,00,C5,
167184000,00000154,false,0,8,04,17,14,00,00,00,00,00,
167184000,00000106,false,0,8,00,C0,00,00,FF,FF,00,C5,
167184000,00000116,false,0,6,00,90,F4,11,9E,4A,00,00,
167184000,00000126,false,0,7,02,03,00,00,00,48,09,00,
167184000,00000102,false,0,6,23,96,D3,FF,D0,FF,00,00,
167194000,0000000E,false,0,8,20,6A,3F,FF,08,FF,30,69,
167194000,00000288,false,0,8,00,00,00,00,00,1B,00,00,
167194000,00000108,false,0,4,00,00,07,1D,00,00,00,00,
167194000,000002A8,false,0,8,00,00,00,00,00,00,00,1B,
167194000,000001F8,false,0,8,01,EF,F0,36,D3,77,00,00,
167194000,00000116,false,0,6,00,90,F4,11,9F,4B,00,00,
167194000,00000368,false,0,8,00,5A,1F,00,00,08,00,FF,
167194000,00000228,false,0,4,40,C0,40,A1,00,00,00,00,
167194000,000003DC,false,0,8,00,00,00,00,00,00,00,00,
167194000,00000154,false,0,8,04,17,14,00,00,00,00,00,
167194000,00000754,false,0,8,65,FD,FF,00,00,00,00,00,
167194000,00000106,false,0,8,00,E0,00,00,FF,FF,00,E5,
167194000,00000102,false,0,6,16,96,D0,FF,B7,FF,00,00,
167194000,00000754,false,0,8,67,00,95,00,00,00,00,00,
167194000,00000102,false,0,6,16,96,D0,FF,B7,FF,00,00,
167194000,00000754,false,0,8,66,00,00,00,00,00,00,00,
167204000,00000754,false,0,8,64,00,00,00,00,00,00,00,
167204000,00000754,false,0,8,0A,00,00,00,00,00,00,00,
167204000,00000268,false,0,8,55,00,1D,02,BD,07,36,00,
167204000,0000000E,false,0,8,20,6A,3F,FF,08,FF,40,30,
167204000,0000020C,false,0,8,00,00,00,00,00,00,F0,00,
167204000,00000228,false,0,4,40,C0,50,6C,00,00,00,00,
167204000,0000023C,false,0,8,3F,40,41,78,7E,64,00,00,
167204000,0000071C,false,0,8,0B,00,00,00,00,F1,00,06,
167204000,0000024C,false,0,8,AB,7D,00,00,00,00,00,00,
167204000,000003AC,false,0,8,00,00,00,00,00,00,00,00,
167204000,0000040C,false,0,1,00,00,00,00,00,00,00,00,
167204000,00000154,false,0,8,04,17,14,00,00,00,00,00,
167204000,00000106,false,0,8,00,00,00,00,FF,FF,00,05,
167204000,00000102,false,0,6,0A,96,D2,FF,95,FF,00,00,
167204000,00000116,false,0,6,00,90,F4,11,90,3C,00,00,
167204000,00000102,false,0,6,0A,96,D2,FF,95,FF,00,00,
167214000,0000000E,false,0,8,20,6B,3F,FF,08,FF,50,BB,
167214000,0000020E,false,0,8,88,10,00,13,BB,00,06,00,
167214000,0000033E,false,0,8,00,00,00,00,00,00,00,00,
167214000,0000040E,false,0,1,00,00,00,00,00,00,00,00,
167214000,00000288,false,0,8,00,00,00,00,00,1B,00,00,
167214000,00000108,false,0,4,00,00,08,1E,00,00,00,00,
167214000,000002A8,false,0,8,00,00,00,00,00,00,00,1B,
167214000,000001F8,false,0,8,01,EF,F0,46,D3,87,00,00,
167214000,000002A8,false,0,8,00,00,00,00,00,00,00,1B,
167214000,00000228,false,0,4,40,C0,60,26,00,00,00,00,
167214000,000003BC,false,0,8,00,55,55,55,01,00,00,00,
167214000,00000154,false,0,8,04,17,14,00,00,00,00,00,
167214000,00000106,false,0,8,00,20,00,00,FF,FF,00,25,
167214000,00000116,false,0,6,00,90,F4,11,91,3D,00,00,
167214000,000002C8,false,0,8,6E,80,03,7B,00,00,10,46,
167214000,00000102,false,0,6,16,96,D5,FF,94,FF,00,00,
167224000,0000000E,false,0,8,20,6B,3F,FF,08,FF,60,F1,
167224000,000003D8,false,0,3,86,06,00,00,00,00,00,00,
167224000,00000408,false,0,1,30,00,00,00,00,00,00,00,
167224000,00000228,false,0,4,40,C0,70,EB,00,00,00,00,
167224000,00000154,false,0,8,04,17,14,00,00,00,00,00,
167224000,00000106,false,0,8,00,40,00,00,FF,FF,00,45,
167224000,00000116,false,0,6,00,90,F4,11,92,3E,00,00,
167224000,00000102,false,0,6,0A,96,DE,FF,97,FF,00,00,
167234000,00000278,false,0,8,12,00,40,02,04,00,10,6E,
167234000,00000108,false,0,4,00,00,09,1F,00,00,00,00,
167234000,00000106,false,0,8,00,60,00,00,FF,FF,00,65,
167234000,00000288,false,0,8,00,00,00,00,00,1B,00,00,
167234000,00000168,false,0,8,34,0D,1C,7F,00,00,90,D2,
167234000,000001F8,false,0,8,01,EF,F0,56,D3,97,00,00,
167234000,000002A8,false,0,8,00,00,00,00,00,00,00,1B,
167234000,00000228,false,0,4,40,C0,80,94,00,00,00,00,
167234000,00000154,false,0,8,04,17,14,00,00,00,00,00,
167234000,00000116,false,0,6,00,90,F4,11,93,3F,00,00,
167234000,00000256,false,0,8,81,02,00,30,00,10,00,1B,
167234000,00000116,false,0,6,00,90,F4,11,93,3F,00,00,
167234000,00000102,false,0,6,23,96,E1,FF,A0,FF,00,00,
167234000,00000266,false,0,8,85,04,00,00,00,70,0A,4B,
167244000,0000000E,false,0,8,20,6B,3F,FF,08,FF,80,43,
167244000,0000021C,false,0,8,00,08,00,00,86,01,00,14,
167244000,0000025C,false,0,8,01,02,26,9A,50,00,92,04,
167244000,00000228,false,0,4,40,C4,90,74,00,00,00,00,
167244000,00000154,false,0,8,04,17,14,00,00,00,00,00,
167244000,00000106,false,0,8,00,80,00,00,FF,FF,00,85,
167244000,00000154,false,0,8,04,17,14,00,00,00,00,00,
167244000,00000116,false,0,6,00,90,F4,31,94,60,00,00,
167244000,00000102,false,0,6,0A,96,DD,FF,CF,FF,00,00,
167254000,00000338,false,0,8,D6,00,F7,00,27,01,54,54,
167254000,0000000E,false,0,8,20,6B,3F,FF,08,FF,90,8E,
167254000,0000028A,false,0,8,0A,00,FF,1F,00,01,00,00,
167254000,0000030A,false,0,8,00,01,7C,B3,02,41,00,17,
167254000,00000288,false,0,8,00,00,00,00,00,1B,00,00,
167254000,0000065A,false,0,8,0E,17,85,00,00,00,00,00,
167254000,00000125,false,0,4,FF,02,2D,06,00,00,00,00,
167254000,00000108,false,0,4,00,00,0A,20,00,00,00,00,
167254000,0000048A,false,0,8,00,00,00,00,00,00,00,00,
167254000,00000168,false,0,8,34,0D,1C,7F,00,00,A0,E2,
167254000,000001F8,false,0,8,01,EF,F0,66,D3,A7,00,00,
167254000,000002A8,false,0,8,00,00,00,00,00,00,00,1B,
167254000,00000228,false,0,4,40,C4,A0,3E,00,00,00,00,
167254000,00000138,false,0,5,00,16,4C,00,00,00,00,00,
167254000,00000138,false,0,5,00,16,4C,00,00,00,00,00,
167254000,00000106,false,0,8,00,A0,00,00,FF,FF,00,A5,
167254000,00000116,false,0,6,00,90,F4,31,95,61,00,00,
167254000,00000102,false,0,6,23,96,D7,FF,CF,FF,00,00,
167264000,0000025A,false,0,8,00,00,00,00,00,00,00,00,
167264000,0000023A,false,0,8,00,38,00,12,00,00,00,00,
167264000,0000021A,false,0,8,FE,36,12,FE,69,05,07,AD,
167264000,0000024A,false,0,8,FE,FE,FE,FE,FE,FE,FE,14,
167264000,0000027A,false,0,7,30,30,0D,8C,09,15,00,00,
167264000,00000222,false,0,7,00,00,14,96,00,10,70,00,
167264000,0000029A,false,0,8,01,36,FE,00,00,00,00,00,
167264000,00000210,false,0,7,00,00,E3,1D,1F,86,FF,00,
167264000,0000000E,false,0,8,20,6B,3F,FF,08,FF,A0,C4,
167264000,00000202,false,0,8,FD,5E,45,9D,C4,09,1E,2D,
167264000,000006F2,false,0,8,0C,4B,B3,D2,9C,34,23,CD,
167264000,00000212,false,0,5,D8,00,12,71,00,00,00,00,
167264000,00000232,false,0,4,02,24,68,82,00,00,00,00,
167264000,000002A2,false,0,7,00,00,14,96,00,10,70,00,
167264000,00000232,false,0,4,02,24,68,82,00,00,00,00,
167264000,00000402,false,0,2,10,00,00,00,00,00,00,00,
167264000,000003A2,false,0,8,FF,0F,FF,0F,00,00,00,32,
167264000,00000228,false,0,4,40,C4,B0,F3,00,00,00,00,
167264000,0000028C,false,0,8,00,00,00,00,00,00,F0,00,
167264000,000002AC,false,0,8,0F,00,24,90,00,00,D6,CE,
167264000,000002BC,false,0,8,3F,40,41,78,7E,64,00,00,
167264000,00000106,false,0,8,00,C0,00,00,FF,FF,00,C5,
167264000,00000154,false,0,8,00,17,14,00,00,00,00,00,
167264000,00000106,false,0,8,00,C0,00,00,FF,FF,00,C5,
167264000,0000048C,false,0,1,00,00,00,00,00,00,00,00,
167264000,00000116,false,0,6,00,B0,F4,31,96,82,00,00,
167264000,00000102,false,0,6,21,96,D0,FF,D0,FF,00,00,
167264000,000005BC,false,0,8,0B,00,06,08,00,00,00,00,
167264000,0000079C,false,0,8,0E,00,00,01,5D,56,6E,01,
167264000,0000020A,false,0,8,00,01,01,82,C1,40,11,11,
167274000,0000000E,false,0,8,20,6A,3F,FF,08,FF,B0,4F,
167274000,00000258,false,0,8,2F,C8,36,D8,46,05,00,8F,
167274000,0000029C,false,0,8,00,08,00,00,87,01,00,14,
167274000,00000108,false,0,4,00,00,0B,21,00,00,00,00,
167274000,00000288,false,0,8,00,00,00,00,00,1B,00,00,
167274000,00000278,false,0,8,02,24,40,00,04,00,20,90,
167274000,00000168,false,0,8,34,0D,1C,7F,00,00,B0,F2,
167274000,000001F8,false,0,8,01,EF,F0,77,D4,B7,00,00,
167274000,000002A8,false,0,8,00,00,00,00,00,00,00,1B,
167274000,000002DC,false,0,8,00,00,00,00,00,00,00,00,
167274000,00000228,false,0,4,40,C4,C0,AA,00,00,00,00,
167274000,000002DC,false,0,8,00,00,00,00,00,00,00,00,
167274000,00000154,false,0,8,00,17,14,00,00,00,00,00,
167274000,00000358,false,0,8,04,07,50,01,F0,00,00,30,
167274000,00000106,false,0,8,00,E0,00,00,FF,FF,00,E5,
167274000,00000116,false,0,6,00,B0,F4,31,97,83,00,00,
167274000,00000102,false,0,6,16,96,D0,FF,97,FF,00,00,
167274000,0000026A,false,0,3,FA,01,00,00,00,00,00,00,
167284000,00000228,false,0,4,40,C4,D0,67,00,00,00,00,
167284000,00000278,false,0,8,02,24,40,00,04,00,30,A0,
167284000,00000228,false,0,4,40,C4,D0,67,00,00,00,00,
167284000,00000154,false,0,8,00,17,14,00,00,00,00,00,
167284000,00000106,false,0,8,00,00,00,00,FF,FF,00,05,
167284000,00000116,false,0,6,00,B0,F4,31,98,84,00,00,
167284000,00000126,false,0,7,02,03,00,00,00,48,09,00,
167284000,00000102,false,0,6,0B,96,D4,FF,9A,FF,00,00,
167294000,0000000E,false,0,8,20,6A,3F,FF,08,FF,D0,DB,
167294000,00000288,false,0,8,00,00,00,00,00,1B,00,00,
167294000,00000108,false,0,4,00,00,0C,22,00,00,00,00,
